# HZ S RI R 50.000000
! FREQ(HZ)    reS11         imS11         reS21         imS21         reS12         imS12         reS22         imS22       
5.007875e+08 -9.489152e-01  3.154474e-01  2.292213e-03  6.895335e-03  2.292213e-03  6.895335e-03 -9.489152e-01  3.154474e-01
5.016975e+08 -9.486794e-01  3.161558e-01  2.304200e-03  6.914145e-03  2.304200e-03  6.914145e-03 -9.486794e-01  3.161558e-01
5.026092e+08 -9.484422e-01  3.168667e-01  2.316270e-03  6.933034e-03  2.316270e-03  6.933034e-03 -9.484422e-01  3.168667e-01
5.035226e+08 -9.482036e-01  3.175798e-01  2.328428e-03  6.952030e-03  2.328428e-03  6.952030e-03 -9.482036e-01  3.175798e-01
5.044376e+08 -9.479637e-01  3.182953e-01  2.340670e-03  6.971106e-03  2.340670e-03  6.971106e-03 -9.479637e-01  3.182953e-01
5.053543e+08 -9.477213e-01  3.190127e-01  2.353003e-03  6.990289e-03  2.353003e-03  6.990289e-03 -9.477213e-01  3.190127e-01
5.062726e+08 -9.474786e-01  3.197328e-01  2.365420e-03  7.009554e-03  2.365420e-03  7.009554e-03 -9.474786e-01  3.197328e-01
5.071927e+08 -9.472345e-01  3.204553e-01  2.377930e-03  7.028926e-03  2.377930e-03  7.028926e-03 -9.472345e-01  3.204553e-01
5.081143e+08 -9.469889e-01  3.211804e-01  2.390532e-03  7.048397e-03  2.390532e-03  7.048397e-03 -9.469889e-01  3.211804e-01
5.090377e+08 -9.467418e-01  3.219078e-01  2.403223e-03  7.067960e-03  2.403223e-03  7.067960e-03 -9.467418e-01  3.219078e-01
5.099628e+08 -9.464933e-01  3.226378e-01  2.416007e-03  7.087622e-03  2.416007e-03  7.087622e-03 -9.464933e-01  3.226378e-01
5.108895e+08 -9.462423e-01  3.233696e-01  2.428883e-03  7.107385e-03  2.428883e-03  7.107385e-03 -9.462423e-01  3.233696e-01
5.118179e+08 -9.459909e-01  3.241044e-01  2.441855e-03  7.127249e-03  2.441855e-03  7.127249e-03 -9.459909e-01  3.241044e-01
5.127480e+08 -9.457380e-01  3.248417e-01  2.454922e-03  7.147215e-03  2.454922e-03  7.147215e-03 -9.457380e-01  3.248417e-01
5.136798e+08 -9.454836e-01  3.255814e-01  2.468088e-03  7.167290e-03  2.468088e-03  7.167290e-03 -9.454836e-01  3.255814e-01
5.146132e+08 -9.452276e-01  3.263237e-01  2.481348e-03  7.187459e-03  2.481348e-03  7.187459e-03 -9.452276e-01  3.263237e-01
5.155484e+08 -9.449702e-01  3.270685e-01  2.494708e-03  7.207740e-03  2.494708e-03  7.207740e-03 -9.449702e-01  3.270685e-01
5.164853e+08 -9.447112e-01  3.278158e-01  2.508167e-03  7.228123e-03  2.508167e-03  7.228123e-03 -9.447112e-01  3.278158e-01
5.174239e+08 -9.444495e-01  3.285654e-01  2.521725e-03  7.248610e-03  2.521725e-03  7.248610e-03 -9.444495e-01  3.285654e-01
5.183642e+08 -9.441875e-01  3.293178e-01  2.535386e-03  7.269210e-03  2.535386e-03  7.269210e-03 -9.441875e-01  3.293178e-01
5.193061e+08 -9.439237e-01  3.300729e-01  2.549150e-03  7.289914e-03  2.549150e-03  7.289914e-03 -9.439237e-01  3.300729e-01
5.202498e+08 -9.436584e-01  3.308306e-01  2.563018e-03  7.310731e-03  2.563018e-03  7.310731e-03 -9.436584e-01  3.308306e-01
5.211953e+08 -9.433915e-01  3.315909e-01  2.576992e-03  7.331663e-03  2.576992e-03  7.331663e-03 -9.433915e-01  3.315909e-01
5.221424e+08 -9.431230e-01  3.323538e-01  2.591070e-03  7.352700e-03  2.591070e-03  7.352700e-03 -9.431230e-01  3.323538e-01
5.230913e+08 -9.428518e-01  3.331191e-01  2.605257e-03  7.373852e-03  2.605257e-03  7.373852e-03 -9.428518e-01  3.331191e-01
5.240418e+08 -9.425800e-01  3.338873e-01  2.619551e-03  7.395120e-03  2.619551e-03  7.395120e-03 -9.425800e-01  3.338873e-01
5.249941e+08 -9.423066e-01  3.346582e-01  2.633956e-03  7.416504e-03  2.633956e-03  7.416504e-03 -9.423066e-01  3.346582e-01
5.259482e+08 -9.420314e-01  3.354319e-01  2.648472e-03  7.438004e-03  2.648472e-03  7.438004e-03 -9.420314e-01  3.354319e-01
5.269040e+08 -9.417546e-01  3.362084e-01  2.663100e-03  7.459621e-03  2.663100e-03  7.459621e-03 -9.417546e-01  3.362084e-01
5.278615e+08 -9.414761e-01  3.369875e-01  2.677841e-03  7.481356e-03  2.677841e-03  7.481356e-03 -9.414761e-01  3.369875e-01
5.288207e+08 -9.411948e-01  3.377690e-01  2.692696e-03  7.503209e-03  2.692696e-03  7.503209e-03 -9.411948e-01  3.377690e-01
5.297817e+08 -9.409128e-01  3.385538e-01  2.707666e-03  7.525180e-03  2.707666e-03  7.525180e-03 -9.409128e-01  3.385538e-01
5.307445e+08 -9.406291e-01  3.393412e-01  2.722755e-03  7.547279e-03  2.722755e-03  7.547279e-03 -9.406291e-01  3.393412e-01
5.317089e+08 -9.403436e-01  3.401316e-01  2.737962e-03  7.569498e-03  2.737962e-03  7.569498e-03 -9.403436e-01  3.401316e-01
5.326752e+08 -9.400563e-01  3.409247e-01  2.753290e-03  7.591846e-03  2.753290e-03  7.591846e-03 -9.400563e-01  3.409247e-01
5.336432e+08 -9.397662e-01  3.417202e-01  2.768737e-03  7.614315e-03  2.768737e-03  7.614315e-03 -9.397662e-01  3.417202e-01
5.346129e+08 -9.394753e-01  3.425190e-01  2.784308e-03  7.636914e-03  2.784308e-03  7.636914e-03 -9.394753e-01  3.425190e-01
5.355845e+08 -9.391826e-01  3.433209e-01  2.800005e-03  7.659643e-03  2.800005e-03  7.659643e-03 -9.391826e-01  3.433209e-01
5.365577e+08 -9.388881e-01  3.441256e-01  2.815824e-03  7.682496e-03  2.815824e-03  7.682496e-03 -9.388881e-01  3.441256e-01
5.375328e+08 -9.385917e-01  3.449332e-01  2.831773e-03  7.705489e-03  2.831773e-03  7.705489e-03 -9.385917e-01  3.449332e-01
5.385096e+08 -9.382934e-01  3.457436e-01  2.847847e-03  7.728606e-03  2.847847e-03  7.728606e-03 -9.382934e-01  3.457436e-01
5.394882e+08 -9.379922e-01  3.465568e-01  2.864056e-03  7.751865e-03  2.864056e-03  7.751865e-03 -9.379922e-01  3.465568e-01
5.404686e+08 -9.376901e-01  3.473733e-01  2.880391e-03  7.775249e-03  2.880391e-03  7.775249e-03 -9.376901e-01  3.473733e-01
5.414508e+08 -9.373861e-01  3.481927e-01  2.896861e-03  7.798777e-03  2.896861e-03  7.798777e-03 -9.373861e-01  3.481927e-01
5.424347e+08 -9.370801e-01  3.490154e-01  2.913470e-03  7.822449e-03  2.913470e-03  7.822449e-03 -9.370801e-01  3.490154e-01
5.434204e+08 -9.367722e-01  3.498410e-01  2.930210e-03  7.846247e-03  2.930210e-03  7.846247e-03 -9.367722e-01  3.498410e-01
5.444080e+08 -9.364613e-01  3.506692e-01  2.947088e-03  7.870192e-03  2.947088e-03  7.870192e-03 -9.364613e-01  3.506692e-01
5.453973e+08 -9.361494e-01  3.515010e-01  2.964109e-03  7.894282e-03  2.964109e-03  7.894282e-03 -9.361494e-01  3.515010e-01
5.463884e+08 -9.358355e-01  3.523358e-01  2.981266e-03  7.918511e-03  2.981266e-03  7.918511e-03 -9.358355e-01  3.523358e-01
5.473813e+08 -9.355195e-01  3.531739e-01  2.998569e-03  7.942887e-03  2.998569e-03  7.942887e-03 -9.355195e-01  3.531739e-01
5.483760e+08 -9.352005e-01  3.540146e-01  3.016016e-03  7.967411e-03  3.016016e-03  7.967411e-03 -9.352005e-01  3.540146e-01
5.493726e+08 -9.348805e-01  3.548589e-01  3.033610e-03  7.992085e-03  3.033610e-03  7.992085e-03 -9.348805e-01  3.548589e-01
5.503709e+08 -9.345583e-01  3.557066e-01  3.051353e-03  8.016908e-03  3.051353e-03  8.016908e-03 -9.345583e-01  3.557066e-01
5.513711e+08 -9.342340e-01  3.565572e-01  3.069246e-03  8.041891e-03  3.069246e-03  8.041891e-03 -9.342340e-01  3.565572e-01
5.523730e+08 -9.339076e-01  3.574113e-01  3.087289e-03  8.067016e-03  3.087289e-03  8.067016e-03 -9.339076e-01  3.574113e-01
5.533768e+08 -9.335780e-01  3.582683e-01  3.105488e-03  8.092302e-03  3.105488e-03  8.092302e-03 -9.335780e-01  3.582683e-01
5.543824e+08 -9.332473e-01  3.591288e-01  3.123840e-03  8.117742e-03  3.123840e-03  8.117742e-03 -9.332473e-01  3.591288e-01
5.553899e+08 -9.329144e-01  3.599927e-01  3.142351e-03  8.143344e-03  3.142351e-03  8.143344e-03 -9.329144e-01  3.599927e-01
5.563992e+08 -9.325793e-01  3.608599e-01  3.161020e-03  8.169101e-03  3.161020e-03  8.169101e-03 -9.325793e-01  3.608599e-01
5.574103e+08 -9.322408e-01  3.617302e-01  3.179851e-03  8.195022e-03  3.179851e-03  8.195022e-03 -9.322408e-01  3.617302e-01
5.584232e+08 -9.319012e-01  3.626042e-01  3.198846e-03  8.221109e-03  3.198846e-03  8.221109e-03 -9.319012e-01  3.626042e-01
5.594380e+08 -9.315593e-01  3.634817e-01  3.218008e-03  8.247361e-03  3.218008e-03  8.247361e-03 -9.315593e-01  3.634817e-01
5.604546e+08 -9.312152e-01  3.643625e-01  3.237335e-03  8.273782e-03  3.237335e-03  8.273782e-03 -9.312152e-01  3.643625e-01
5.614731e+08 -9.308676e-01  3.652465e-01  3.256837e-03  8.300378e-03  3.256837e-03  8.300378e-03 -9.308676e-01  3.652465e-01
5.624935e+08 -9.305187e-01  3.661342e-01  3.276505e-03  8.327135e-03  3.276505e-03  8.327135e-03 -9.305187e-01  3.661342e-01
5.635156e+08 -9.301675e-01  3.670257e-01  3.296351e-03  8.354071e-03  3.296351e-03  8.354071e-03 -9.301675e-01  3.670257e-01
5.645397e+08 -9.298139e-01  3.679205e-01  3.316370e-03  8.381178e-03  3.316370e-03  8.381178e-03 -9.298139e-01  3.679205e-01
5.655656e+08 -9.294569e-01  3.688185e-01  3.336569e-03  8.408465e-03  3.336569e-03  8.408465e-03 -9.294569e-01  3.688185e-01
5.665934e+08 -9.290984e-01  3.697206e-01  3.356952e-03  8.435935e-03  3.356952e-03  8.435935e-03 -9.290984e-01  3.697206e-01
5.676230e+08 -9.287375e-01  3.706262e-01  3.377518e-03  8.463587e-03  3.377518e-03  8.463587e-03 -9.287375e-01  3.706262e-01
5.686545e+08 -9.283741e-01  3.715355e-01  3.398266e-03  8.491414e-03  3.398266e-03  8.491414e-03 -9.283741e-01  3.715355e-01
5.696879e+08 -9.280071e-01  3.724481e-01  3.419206e-03  8.519435e-03  3.419206e-03  8.519435e-03 -9.280071e-01  3.724481e-01
5.707231e+08 -9.276387e-01  3.733649e-01  3.440337e-03  8.547642e-03  3.440337e-03  8.547642e-03 -9.276387e-01  3.733649e-01
5.717603e+08 -9.272676e-01  3.742854e-01  3.461660e-03  8.576036e-03  3.461660e-03  8.576036e-03 -9.272676e-01  3.742854e-01
5.727993e+08 -9.268941e-01  3.752095e-01  3.483179e-03  8.604628e-03  3.483179e-03  8.604628e-03 -9.268941e-01  3.752095e-01
5.738402e+08 -9.265168e-01  3.761371e-01  3.504901e-03  8.633418e-03  3.504901e-03  8.633418e-03 -9.265168e-01  3.761371e-01
5.748830e+08 -9.261379e-01  3.770690e-01  3.526821e-03  8.662399e-03  3.526821e-03  8.662399e-03 -9.261379e-01  3.770690e-01
5.759277e+08 -9.257565e-01  3.780046e-01  3.548943e-03  8.691580e-03  3.548943e-03  8.691580e-03 -9.257565e-01  3.780046e-01
5.769743e+08 -9.253712e-01  3.789438e-01  3.571271e-03  8.720953e-03  3.571271e-03  8.720953e-03 -9.253712e-01  3.789438e-01
5.780228e+08 -9.249842e-01  3.798873e-01  3.593812e-03  8.750539e-03  3.593812e-03  8.750539e-03 -9.249842e-01  3.798873e-01
5.790732e+08 -9.245946e-01  3.808346e-01  3.616566e-03  8.780341e-03  3.616566e-03  8.780341e-03 -9.245946e-01  3.808346e-01
5.801255e+08 -9.242022e-01  3.817860e-01  3.639532e-03  8.810336e-03  3.639532e-03  8.810336e-03 -9.242022e-01  3.817860e-01
5.811798e+08 -9.238058e-01  3.827411e-01  3.662723e-03  8.840558e-03  3.662723e-03  8.840558e-03 -9.238058e-01  3.827411e-01
5.822359e+08 -9.234077e-01  3.837006e-01  3.686133e-03  8.870988e-03  3.686133e-03  8.870988e-03 -9.234077e-01  3.837006e-01
5.832940e+08 -9.230068e-01  3.846640e-01  3.709762e-03  8.901627e-03  3.709762e-03  8.901627e-03 -9.230068e-01  3.846640e-01
5.843539e+08 -9.226019e-01  3.856312e-01  3.733624e-03  8.932496e-03  3.733624e-03  8.932496e-03 -9.226019e-01  3.856312e-01
5.854159e+08 -9.221951e-01  3.866029e-01  3.757717e-03  8.963586e-03  3.757717e-03  8.963586e-03 -9.221951e-01  3.866029e-01
5.864797e+08 -9.217853e-01  3.875789e-01  3.782044e-03  8.994899e-03  3.782044e-03  8.994899e-03 -9.217853e-01  3.875789e-01
5.875455e+08 -9.213716e-01  3.885585e-01  3.806605e-03  9.026436e-03  3.806605e-03  9.026436e-03 -9.213716e-01  3.885585e-01
5.886132e+08 -9.209558e-01  3.895429e-01  3.831411e-03  9.058208e-03  3.831411e-03  9.058208e-03 -9.209558e-01  3.895429e-01
5.896828e+08 -9.205370e-01  3.905315e-01  3.856462e-03  9.090217e-03  3.856462e-03  9.090217e-03 -9.205370e-01  3.905315e-01
5.907544e+08 -9.201141e-01  3.915240e-01  3.881758e-03  9.122454e-03  3.881758e-03  9.122454e-03 -9.201141e-01  3.915240e-01
5.918280e+08 -9.196891e-01  3.925212e-01  3.907308e-03  9.154941e-03  3.907308e-03  9.154941e-03 -9.196891e-01  3.925212e-01
5.929035e+08 -9.192609e-01  3.935229e-01  3.933110e-03  9.187658e-03  3.933110e-03  9.187658e-03 -9.192609e-01  3.935229e-01
5.939809e+08 -9.188286e-01  3.945285e-01  3.959177e-03  9.220638e-03  3.959177e-03  9.220638e-03 -9.188286e-01  3.945285e-01
5.950603e+08 -9.183940e-01  3.955391e-01  3.985501e-03  9.253852e-03  3.985501e-03  9.253852e-03 -9.183940e-01  3.955391e-01
5.961417e+08 -9.179562e-01  3.965541e-01  4.012093e-03  9.287321e-03  4.012093e-03  9.287321e-03 -9.179562e-01  3.965541e-01
5.972250e+08 -9.175140e-01  3.975732e-01  4.038960e-03  9.321058e-03  4.038960e-03  9.321058e-03 -9.175140e-01  3.975732e-01
5.983103e+08 -9.170696e-01  3.985973e-01  4.066098e-03  9.355043e-03  4.066098e-03  9.355043e-03 -9.170696e-01  3.985973e-01
5.993976e+08 -9.166207e-01  3.996256e-01  4.093515e-03  9.389288e-03  4.093515e-03  9.389288e-03 -9.166207e-01  3.996256e-01
6.004868e+08 -9.161694e-01  4.006590e-01  4.121216e-03  9.423805e-03  4.121216e-03  9.423805e-03 -9.161694e-01  4.006590e-01
6.015781e+08 -9.157147e-01  4.016972e-01  4.149204e-03  9.458586e-03  4.149204e-03  9.458586e-03 -9.157147e-01  4.016972e-01
6.026713e+08 -9.152556e-01  4.027394e-01  4.177483e-03  9.493643e-03  4.177483e-03  9.493643e-03 -9.152556e-01  4.027394e-01
6.037665e+08 -9.147939e-01  4.037869e-01  4.206058e-03  9.528977e-03  4.206058e-03  9.528977e-03 -9.147939e-01  4.037869e-01
6.048637e+08 -9.143276e-01  4.048388e-01  4.234934e-03  9.564590e-03  4.234934e-03  9.564590e-03 -9.143276e-01  4.048388e-01
6.059628e+08 -9.138588e-01  4.058961e-01  4.264115e-03  9.600483e-03  4.264115e-03  9.600483e-03 -9.138588e-01  4.058961e-01
6.070640e+08 -9.133863e-01  4.069581e-01  4.293606e-03  9.636671e-03  4.293606e-03  9.636671e-03 -9.133863e-01  4.069581e-01
6.081672e+08 -9.129091e-01  4.080248e-01  4.323411e-03  9.673141e-03  4.323411e-03  9.673141e-03 -9.129091e-01  4.080248e-01
6.092724e+08 -9.124292e-01  4.090968e-01  4.353536e-03  9.709909e-03  4.353536e-03  9.709909e-03 -9.124292e-01  4.090968e-01
6.103796e+08 -9.119444e-01  4.101734e-01  4.383989e-03  9.746987e-03  4.383989e-03  9.746987e-03 -9.119444e-01  4.101734e-01
6.114888e+08 -9.114570e-01  4.112554e-01  4.414765e-03  9.784355e-03  4.414765e-03  9.784355e-03 -9.114570e-01  4.112554e-01
6.126000e+08 -9.109656e-01  4.123427e-01  4.445886e-03  9.822046e-03  4.445886e-03  9.822046e-03 -9.109656e-01  4.123427e-01
6.137132e+08 -9.104693e-01  4.134346e-01  4.477337e-03  9.860032e-03  4.477337e-03  9.860032e-03 -9.104693e-01  4.134346e-01
6.148285e+08 -9.099701e-01  4.145322e-01  4.509140e-03  9.898346e-03  4.509140e-03  9.898346e-03 -9.099701e-01  4.145322e-01
6.159458e+08 -9.094659e-01  4.156345e-01  4.541294e-03  9.936980e-03  4.541294e-03  9.936980e-03 -9.094659e-01  4.156345e-01
6.170651e+08 -9.089587e-01  4.167426e-01  4.573803e-03  9.975935e-03  4.573803e-03  9.975935e-03 -9.089587e-01  4.167426e-01
6.181865e+08 -9.084463e-01  4.178557e-01  4.606678e-03  1.001523e-02  4.606678e-03  1.001523e-02 -9.084463e-01  4.178557e-01
6.193099e+08 -9.079308e-01  4.189746e-01  4.639917e-03  1.005484e-02  4.639917e-03  1.005484e-02 -9.079308e-01  4.189746e-01
6.204353e+08 -9.074100e-01  4.200986e-01  4.673537e-03  1.009481e-02  4.673537e-03  1.009481e-02 -9.074100e-01  4.200986e-01
6.215628e+08 -9.068860e-01  4.212284e-01  4.707536e-03  1.013512e-02  4.707536e-03  1.013512e-02 -9.068860e-01  4.212284e-01
6.226923e+08 -9.063568e-01  4.223632e-01  4.741919e-03  1.017577e-02  4.741919e-03  1.017577e-02 -9.063568e-01  4.223632e-01
6.238239e+08 -9.058241e-01  4.235044e-01  4.776700e-03  1.021678e-02  4.776700e-03  1.021678e-02 -9.058241e-01  4.235044e-01
6.249575e+08 -9.052861e-01  4.246506e-01  4.811879e-03  1.025815e-02  4.811879e-03  1.025815e-02 -9.052861e-01  4.246506e-01
6.260932e+08 -9.047447e-01  4.258028e-01  4.847464e-03  1.029988e-02  4.847464e-03  1.029988e-02 -9.047447e-01  4.258028e-01
6.272310e+08 -9.041977e-01  4.269606e-01  4.883462e-03  1.034197e-02  4.883462e-03  1.034197e-02 -9.041977e-01  4.269606e-01
6.283708e+08 -9.036471e-01  4.281246e-01  4.919887e-03  1.038446e-02  4.919887e-03  1.038446e-02 -9.036471e-01  4.281246e-01
6.295127e+08 -9.030909e-01  4.292940e-01  4.956736e-03  1.042731e-02  4.956736e-03  1.042731e-02 -9.030909e-01  4.292940e-01
6.306567e+08 -9.025310e-01  4.304697e-01  4.994018e-03  1.047055e-02  4.994018e-03  1.047055e-02 -9.025310e-01  4.304697e-01
6.318027e+08 -9.019654e-01  4.316509e-01  5.031746e-03  1.051419e-02  5.031746e-03  1.051419e-02 -9.019654e-01  4.316509e-01
6.329509e+08 -9.013950e-01  4.328383e-01  5.069926e-03  1.055823e-02  5.069926e-03  1.055823e-02 -9.013950e-01  4.328383e-01
6.341011e+08 -9.008206e-01  4.340323e-01  5.108561e-03  1.060266e-02  5.108561e-03  1.060266e-02 -9.008206e-01  4.340323e-01
6.352534e+08 -9.002404e-01  4.352318e-01  5.147663e-03  1.064751e-02  5.147663e-03  1.064751e-02 -9.002404e-01  4.352318e-01
6.364078e+08 -8.996562e-01  4.364383e-01  5.187246e-03  1.069278e-02  5.187246e-03  1.069278e-02 -8.996562e-01  4.364383e-01
6.375643e+08 -8.990659e-01  4.376503e-01  5.227304e-03  1.073846e-02  5.227304e-03  1.073846e-02 -8.990659e-01  4.376503e-01
6.387229e+08 -8.984704e-01  4.388688e-01  5.267854e-03  1.078457e-02  5.267854e-03  1.078457e-02 -8.984704e-01  4.388688e-01
6.398836e+08 -8.978708e-01  4.400942e-01  5.308908e-03  1.083112e-02  5.308908e-03  1.083112e-02 -8.978708e-01  4.400942e-01
6.410465e+08 -8.972650e-01  4.413255e-01  5.350471e-03  1.087812e-02  5.350471e-03  1.087812e-02 -8.972650e-01  4.413255e-01
6.422114e+08 -8.966548e-01  4.425640e-01  5.392554e-03  1.092556e-02  5.392554e-03  1.092556e-02 -8.966548e-01  4.425640e-01
6.433784e+08 -8.960381e-01  4.438086e-01  5.435164e-03  1.097346e-02  5.435164e-03  1.097346e-02 -8.960381e-01  4.438086e-01
6.445476e+08 -8.954161e-01  4.450597e-01  5.478305e-03  1.102181e-02  5.478305e-03  1.102181e-02 -8.954161e-01  4.450597e-01
6.457189e+08 -8.947894e-01  4.463182e-01  5.522003e-03  1.107064e-02  5.522003e-03  1.107064e-02 -8.947894e-01  4.463182e-01
6.468923e+08 -8.941561e-01  4.475830e-01  5.566255e-03  1.111995e-02  5.566255e-03  1.111995e-02 -8.941561e-01  4.475830e-01
6.480679e+08 -8.935171e-01  4.488547e-01  5.611071e-03  1.116974e-02  5.611071e-03  1.116974e-02 -8.935171e-01  4.488547e-01
6.492456e+08 -8.928724e-01  4.501333e-01  5.656472e-03  1.122003e-02  5.656472e-03  1.122003e-02 -8.928724e-01  4.501333e-01
6.504254e+08 -8.922229e-01  4.514194e-01  5.702460e-03  1.127082e-02  5.702460e-03  1.127082e-02 -8.922229e-01  4.514194e-01
6.516074e+08 -8.915663e-01  4.527123e-01  5.749046e-03  1.132210e-02  5.749046e-03  1.132210e-02 -8.915663e-01  4.527123e-01
6.527915e+08 -8.909037e-01  4.540122e-01  5.796242e-03  1.137391e-02  5.796242e-03  1.137391e-02 -8.909037e-01  4.540122e-01
6.539778e+08 -8.902351e-01  4.553193e-01  5.844065e-03  1.142625e-02  5.844065e-03  1.142625e-02 -8.902351e-01  4.553193e-01
6.551662e+08 -8.895613e-01  4.566344e-01  5.892520e-03  1.147911e-02  5.892520e-03  1.147911e-02 -8.895613e-01  4.566344e-01
6.563568e+08 -8.888802e-01  4.579563e-01  5.941629e-03  1.153253e-02  5.941629e-03  1.153253e-02 -8.888802e-01  4.579563e-01
6.575496e+08 -8.881927e-01  4.592857e-01  5.991395e-03  1.158650e-02  5.991395e-03  1.158650e-02 -8.881927e-01  4.592857e-01
6.587445e+08 -8.874987e-01  4.606228e-01  6.041829e-03  1.164101e-02  6.041829e-03  1.164101e-02 -8.874987e-01  4.606228e-01
6.599416e+08 -8.867982e-01  4.619675e-01  6.092954e-03  1.169611e-02  6.092954e-03  1.169611e-02 -8.867982e-01  4.619675e-01
6.611409e+08 -8.860921e-01  4.633205e-01  6.144775e-03  1.175177e-02  6.144775e-03  1.175177e-02 -8.860921e-01  4.633205e-01
6.623423e+08 -8.853782e-01  4.646806e-01  6.197315e-03  1.180804e-02  6.197315e-03  1.180804e-02 -8.853782e-01  4.646806e-01
6.635460e+08 -8.846575e-01  4.660488e-01  6.250574e-03  1.186489e-02  6.250574e-03  1.186489e-02 -8.846575e-01  4.660488e-01
6.647518e+08 -8.839300e-01  4.674248e-01  6.304581e-03  1.192236e-02  6.304581e-03  1.192236e-02 -8.839300e-01  4.674248e-01
6.659598e+08 -8.831953e-01  4.688091e-01  6.359340e-03  1.198044e-02  6.359340e-03  1.198044e-02 -8.831953e-01  4.688091e-01
