# HZ S RI R 50.000000
! FREQ(HZ)    reS11         imS11         reS21         imS21         reS12         imS12         reS22         imS22       
5.003853e+08 -9.699008e-01  2.434722e-01  9.042870e-04  3.602337e-03  9.042870e-04  3.602337e-03 -9.699008e-01  2.434722e-01
5.012560e+08 -9.697727e-01  2.439817e-01  9.085685e-04  3.611357e-03  9.085685e-04  3.611357e-03 -9.697727e-01  2.439817e-01
5.021282e+08 -9.696440e-01  2.444928e-01  9.128776e-04  3.620419e-03  9.128776e-04  3.620419e-03 -9.696440e-01  2.444928e-01
5.030019e+08 -9.695146e-01  2.450054e-01  9.172138e-04  3.629521e-03  9.172138e-04  3.629521e-03 -9.695146e-01  2.450054e-01
5.038772e+08 -9.693846e-01  2.455194e-01  9.215763e-04  3.638661e-03  9.215763e-04  3.638661e-03 -9.693846e-01  2.455194e-01
5.047540e+08 -9.692538e-01  2.460350e-01  9.259680e-04  3.647846e-03  9.259680e-04  3.647846e-03 -9.692538e-01  2.460350e-01
5.056322e+08 -9.691224e-01  2.465523e-01  9.303869e-04  3.657069e-03  9.303869e-04  3.657069e-03 -9.691224e-01  2.465523e-01
5.065121e+08 -9.689902e-01  2.470710e-01  9.348348e-04  3.666337e-03  9.348348e-04  3.666337e-03 -9.689902e-01  2.470710e-01
5.073934e+08 -9.688574e-01  2.475914e-01  9.393102e-04  3.675643e-03  9.393102e-04  3.675643e-03 -9.688574e-01  2.475914e-01
5.082763e+08 -9.687239e-01  2.481134e-01  9.438145e-04  3.684992e-03  9.438145e-04  3.684992e-03 -9.687239e-01  2.481134e-01
5.091608e+08 -9.685897e-01  2.486368e-01  9.483483e-04  3.694387e-03  9.483483e-04  3.694387e-03 -9.685897e-01  2.486368e-01
5.100467e+08 -9.684547e-01  2.491620e-01  9.529120e-04  3.703824e-03  9.529120e-04  3.703824e-03 -9.684547e-01  2.491620e-01
5.109342e+08 -9.683190e-01  2.496886e-01  9.575033e-04  3.713299e-03  9.575033e-04  3.713299e-03 -9.683190e-01  2.496886e-01
5.118233e+08 -9.681827e-01  2.502169e-01  9.621264e-04  3.722827e-03  9.621264e-04  3.722827e-03 -9.681827e-01  2.502169e-01
5.127139e+08 -9.680455e-01  2.507470e-01  9.667789e-04  3.732392e-03  9.667789e-04  3.732392e-03 -9.680455e-01  2.507470e-01
5.136060e+08 -9.679077e-01  2.512785e-01  9.714618e-04  3.742006e-03  9.714618e-04  3.742006e-03 -9.679077e-01  2.512785e-01
5.144997e+08 -9.677680e-01  2.518114e-01  9.761756e-04  3.751662e-03  9.761756e-04  3.751662e-03 -9.677680e-01  2.518114e-01
5.153950e+08 -9.676287e-01  2.523463e-01  9.809198e-04  3.761363e-03  9.809198e-04  3.761363e-03 -9.676287e-01  2.523463e-01
5.162918e+08 -9.674886e-01  2.528828e-01  9.856957e-04  3.771111e-03  9.856957e-04  3.771111e-03 -9.674886e-01  2.528828e-01
5.171902e+08 -9.673477e-01  2.534211e-01  9.905030e-04  3.780904e-03  9.905030e-04  3.780904e-03 -9.673477e-01  2.534211e-01
5.180901e+08 -9.672061e-01  2.539610e-01  9.953425e-04  3.790745e-03  9.953425e-04  3.790745e-03 -9.672061e-01  2.539610e-01
5.189916e+08 -9.670637e-01  2.545027e-01  1.000215e-03  3.800634e-03  1.000215e-03  3.800634e-03 -9.670637e-01  2.545027e-01
5.198947e+08 -9.669206e-01  2.550460e-01  1.005119e-03  3.810569e-03  1.005119e-03  3.810569e-03 -9.669206e-01  2.550460e-01
5.207993e+08 -9.667767e-01  2.555910e-01  1.010056e-03  3.820552e-03  1.010056e-03  3.820552e-03 -9.667767e-01  2.555910e-01
5.217056e+08 -9.666320e-01  2.561377e-01  1.015025e-03  3.830581e-03  1.015025e-03  3.830581e-03 -9.666320e-01  2.561377e-01
5.226133e+08 -9.664865e-01  2.566861e-01  1.020030e-03  3.840664e-03  1.020030e-03  3.840664e-03 -9.664865e-01  2.566861e-01
5.235227e+08 -9.663402e-01  2.572363e-01  1.025067e-03  3.850792e-03  1.025067e-03  3.850792e-03 -9.663402e-01  2.572363e-01
5.244337e+08 -9.661931e-01  2.577883e-01  1.030139e-03  3.860970e-03  1.030139e-03  3.860970e-03 -9.661931e-01  2.577883e-01
5.253462e+08 -9.660452e-01  2.583420e-01  1.035245e-03  3.871198e-03  1.035245e-03  3.871198e-03 -9.660452e-01  2.583420e-01
5.262604e+08 -9.658964e-01  2.588975e-01  1.040386e-03  3.881477e-03  1.040386e-03  3.881477e-03 -9.658964e-01  2.588975e-01
5.271761e+08 -9.657469e-01  2.594548e-01  1.045562e-03  3.891807e-03  1.045562e-03  3.891807e-03 -9.657469e-01  2.594548e-01
5.280934e+08 -9.655965e-01  2.600139e-01  1.050773e-03  3.902188e-03  1.050773e-03  3.902188e-03 -9.655965e-01  2.600139e-01
5.290123e+08 -9.654453e-01  2.605747e-01  1.056020e-03  3.912620e-03  1.056020e-03  3.912620e-03 -9.654453e-01  2.605747e-01
5.299328e+08 -9.652933e-01  2.611374e-01  1.061305e-03  3.923108e-03  1.061305e-03  3.923108e-03 -9.652933e-01  2.611374e-01
5.308549e+08 -9.651404e-01  2.617020e-01  1.066624e-03  3.933643e-03  1.066624e-03  3.933643e-03 -9.651404e-01  2.617020e-01
5.317786e+08 -9.649867e-01  2.622682e-01  1.071981e-03  3.944235e-03  1.071981e-03  3.944235e-03 -9.649867e-01  2.622682e-01
5.327040e+08 -9.648320e-01  2.628365e-01  1.077377e-03  3.954884e-03  1.077377e-03  3.954884e-03 -9.648320e-01  2.628365e-01
5.336309e+08 -9.646766e-01  2.634064e-01  1.082808e-03  3.965580e-03  1.082808e-03  3.965580e-03 -9.646766e-01  2.634064e-01
5.345594e+08 -9.645202e-01  2.639785e-01  1.088280e-03  3.976338e-03  1.088280e-03  3.976338e-03 -9.645202e-01  2.639785e-01
5.354896e+08 -9.643630e-01  2.645522e-01  1.093787e-03  3.987145e-03  1.093787e-03  3.987145e-03 -9.643630e-01  2.645522e-01
5.364214e+08 -9.642049e-01  2.651279e-01  1.099336e-03  3.998014e-03  1.099336e-03  3.998014e-03 -9.642049e-01  2.651279e-01
5.373548e+08 -9.640448e-01  2.657053e-01  1.104923e-03  4.008937e-03  1.104923e-03  4.008937e-03 -9.640448e-01  2.657053e-01
5.382898e+08 -9.638849e-01  2.662847e-01  1.110549e-03  4.019913e-03  1.110549e-03  4.019913e-03 -9.638849e-01  2.662847e-01
5.392265e+08 -9.637240e-01  2.668662e-01  1.116217e-03  4.030953e-03  1.116217e-03  4.030953e-03 -9.637240e-01  2.668662e-01
5.401647e+08 -9.635623e-01  2.674497e-01  1.121924e-03  4.042046e-03  1.121924e-03  4.042046e-03 -9.635623e-01  2.674497e-01
5.411047e+08 -9.633996e-01  2.680350e-01  1.127673e-03  4.053199e-03  1.127673e-03  4.053199e-03 -9.633996e-01  2.680350e-01
5.420462e+08 -9.632360e-01  2.686223e-01  1.133462e-03  4.064412e-03  1.133462e-03  4.064412e-03 -9.632360e-01  2.686223e-01
5.429894e+08 -9.630715e-01  2.692117e-01  1.139294e-03  4.075684e-03  1.139294e-03  4.075684e-03 -9.630715e-01  2.692117e-01
5.439342e+08 -9.629060e-01  2.698030e-01  1.145169e-03  4.087021e-03  1.145169e-03  4.087021e-03 -9.629060e-01  2.698030e-01
5.448807e+08 -9.627396e-01  2.703962e-01  1.151085e-03  4.098414e-03  1.151085e-03  4.098414e-03 -9.627396e-01  2.703962e-01
5.458288e+08 -9.625721e-01  2.709916e-01  1.157045e-03  4.109867e-03  1.157045e-03  4.109867e-03 -9.625721e-01  2.709916e-01
5.467786e+08 -9.624038e-01  2.715888e-01  1.163049e-03  4.121386e-03  1.163049e-03  4.121386e-03 -9.624038e-01  2.715888e-01
5.477300e+08 -9.622345e-01  2.721882e-01  1.169096e-03  4.132967e-03  1.169096e-03  4.132967e-03 -9.622345e-01  2.721882e-01
5.486831e+08 -9.620641e-01  2.727897e-01  1.175190e-03  4.144613e-03  1.175190e-03  4.144613e-03 -9.620641e-01  2.727897e-01
5.496378e+08 -9.618928e-01  2.733932e-01  1.181327e-03  4.156322e-03  1.181327e-03  4.156322e-03 -9.618928e-01  2.733932e-01
5.505942e+08 -9.617204e-01  2.739988e-01  1.187510e-03  4.168093e-03  1.187510e-03  4.168093e-03 -9.617204e-01  2.739988e-01
5.515523e+08 -9.615471e-01  2.746066e-01  1.193739e-03  4.179930e-03  1.193739e-03  4.179930e-03 -9.615471e-01  2.746066e-01
5.525120e+08 -9.613727e-01  2.752164e-01  1.200015e-03  4.191836e-03  1.200015e-03  4.191836e-03 -9.613727e-01  2.752164e-01
5.534734e+08 -9.611974e-01  2.758283e-01  1.206339e-03  4.203810e-03  1.206339e-03  4.203810e-03 -9.611974e-01  2.758283e-01
5.544365e+08 -9.610209e-01  2.764424e-01  1.212709e-03  4.215847e-03  1.212709e-03  4.215847e-03 -9.610209e-01  2.764424e-01
5.554012e+08 -9.608434e-01  2.770587e-01  1.219129e-03  4.227958e-03  1.219129e-03  4.227958e-03 -9.608434e-01  2.770587e-01
5.563677e+08 -9.606649e-01  2.776771e-01  1.225597e-03  4.240132e-03  1.225597e-03  4.240132e-03 -9.606649e-01  2.776771e-01
5.573358e+08 -9.604842e-01  2.782973e-01  1.232113e-03  4.252377e-03  1.232113e-03  4.252377e-03 -9.604842e-01  2.782973e-01
5.583056e+08 -9.603035e-01  2.789202e-01  1.238681e-03  4.264695e-03  1.238681e-03  4.264695e-03 -9.603035e-01  2.789202e-01
5.592771e+08 -9.601218e-01  2.795451e-01  1.245297e-03  4.277079e-03  1.245297e-03  4.277079e-03 -9.601218e-01  2.795451e-01
5.602502e+08 -9.599389e-01  2.801724e-01  1.251966e-03  4.289539e-03  1.251966e-03  4.289539e-03 -9.599389e-01  2.801724e-01
5.612251e+08 -9.597550e-01  2.808018e-01  1.258685e-03  4.302069e-03  1.258685e-03  4.302069e-03 -9.597550e-01  2.808018e-01
5.622016e+08 -9.595699e-01  2.814336e-01  1.265457e-03  4.314675e-03  1.265457e-03  4.314675e-03 -9.595699e-01  2.814336e-01
5.631799e+08 -9.593837e-01  2.820676e-01  1.272282e-03  4.327353e-03  1.272282e-03  4.327353e-03 -9.593837e-01  2.820676e-01
5.641599e+08 -9.591964e-01  2.827038e-01  1.279160e-03  4.340108e-03  1.279160e-03  4.340108e-03 -9.591964e-01  2.827038e-01
5.651415e+08 -9.590080e-01  2.833425e-01  1.286091e-03  4.352935e-03  1.286091e-03  4.352935e-03 -9.590080e-01  2.833425e-01
5.661249e+08 -9.588184e-01  2.839835e-01  1.293079e-03  4.365845e-03  1.293079e-03  4.365845e-03 -9.588184e-01  2.839835e-01
5.671100e+08 -9.586276e-01  2.846267e-01  1.300120e-03  4.378829e-03  1.300120e-03  4.378829e-03 -9.586276e-01  2.846267e-01
5.680968e+08 -9.584357e-01  2.852724e-01  1.307219e-03  4.391890e-03  1.307219e-03  4.391890e-03 -9.584357e-01  2.852724e-01
5.690853e+08 -9.582426e-01  2.859204e-01  1.314373e-03  4.405031e-03  1.314373e-03  4.405031e-03 -9.582426e-01  2.859204e-01
5.700756e+08 -9.580483e-01  2.865707e-01  1.321584e-03  4.418251e-03  1.321584e-03  4.418251e-03 -9.580483e-01  2.865707e-01
5.710675e+08 -9.578527e-01  2.872236e-01  1.328854e-03  4.431551e-03  1.328854e-03  4.431551e-03 -9.578527e-01  2.872236e-01
5.720612e+08 -9.576560e-01  2.878789e-01  1.336183e-03  4.444936e-03  1.336183e-03  4.444936e-03 -9.576560e-01  2.878789e-01
5.730566e+08 -9.574581e-01  2.885365e-01  1.343570e-03  4.458402e-03  1.343570e-03  4.458402e-03 -9.574581e-01  2.885365e-01
5.740538e+08 -9.572589e-01  2.891967e-01  1.351017e-03  4.471950e-03  1.351017e-03  4.471950e-03 -9.572589e-01  2.891967e-01
5.750527e+08 -9.570574e-01  2.898589e-01  1.358525e-03  4.485584e-03  1.358525e-03  4.485584e-03 -9.570574e-01  2.898589e-01
5.760533e+08 -9.568557e-01  2.905240e-01  1.366095e-03  4.499305e-03  1.366095e-03  4.499305e-03 -9.568557e-01  2.905240e-01
5.770556e+08 -9.566527e-01  2.911916e-01  1.373727e-03  4.513109e-03  1.373727e-03  4.513109e-03 -9.566527e-01  2.911916e-01
5.780597e+08 -9.564485e-01  2.918617e-01  1.381423e-03  4.527006e-03  1.381423e-03  4.527006e-03 -9.564485e-01  2.918617e-01
5.790656e+08 -9.562429e-01  2.925346e-01  1.389182e-03  4.540987e-03  1.389182e-03  4.540987e-03 -9.562429e-01  2.925346e-01
5.800732e+08 -9.560361e-01  2.932098e-01  1.397005e-03  4.555057e-03  1.397005e-03  4.555057e-03 -9.560361e-01  2.932098e-01
5.810826e+08 -9.558279e-01  2.938876e-01  1.404893e-03  4.569216e-03  1.404893e-03  4.569216e-03 -9.558279e-01  2.938876e-01
5.820937e+08 -9.556184e-01  2.945682e-01  1.412849e-03  4.583471e-03  1.412849e-03  4.583471e-03 -9.556184e-01  2.945682e-01
5.831066e+08 -9.554076e-01  2.952513e-01  1.420871e-03  4.597817e-03  1.420871e-03  4.597817e-03 -9.554076e-01  2.952513e-01
5.841212e+08 -9.551954e-01  2.959371e-01  1.428961e-03  4.612254e-03  1.428961e-03  4.612254e-03 -9.551954e-01  2.959371e-01
5.851376e+08 -9.549818e-01  2.966255e-01  1.437120e-03  4.626788e-03  1.437120e-03  4.626788e-03 -9.549818e-01  2.966255e-01
5.861558e+08 -9.547669e-01  2.973166e-01  1.445349e-03  4.641420e-03  1.445349e-03  4.641420e-03 -9.547669e-01  2.973166e-01
5.871757e+08 -9.545506e-01  2.980104e-01  1.453649e-03  4.656150e-03  1.453649e-03  4.656150e-03 -9.545506e-01  2.980104e-01
5.881974e+08 -9.543328e-01  2.987069e-01  1.462018e-03  4.670973e-03  1.462018e-03  4.670973e-03 -9.543328e-01  2.987069e-01
5.892209e+08 -9.541137e-01  2.994062e-01  1.470460e-03  4.685896e-03  1.470460e-03  4.685896e-03 -9.541137e-01  2.994062e-01
5.902462e+08 -9.538919e-01  3.001080e-01  1.478978e-03  4.700923e-03  1.478978e-03  4.700923e-03 -9.538919e-01  3.001080e-01
5.912732e+08 -9.536699e-01  3.008128e-01  1.487566e-03  4.716047e-03  1.487566e-03  4.716047e-03 -9.536699e-01  3.008128e-01
5.923021e+08 -9.534464e-01  3.015205e-01  1.496232e-03  4.731276e-03  1.496232e-03  4.731276e-03 -9.534464e-01  3.015205e-01
5.933327e+08 -9.532214e-01  3.022311e-01  1.504975e-03  4.746612e-03  1.504975e-03  4.746612e-03 -9.532214e-01  3.022311e-01
5.943652e+08 -9.529949e-01  3.029444e-01  1.513793e-03  4.762052e-03  1.513793e-03  4.762052e-03 -9.529949e-01  3.029444e-01
5.953994e+08 -9.527669e-01  3.036607e-01  1.522691e-03  4.777599e-03  1.522691e-03  4.777599e-03 -9.527669e-01  3.036607e-01
5.964354e+08 -9.525374e-01  3.043800e-01  1.531666e-03  4.793249e-03  1.531666e-03  4.793249e-03 -9.525374e-01  3.043800e-01
5.974732e+08 -9.523063e-01  3.051021e-01  1.540724e-03  4.809016e-03  1.540724e-03  4.809016e-03 -9.523063e-01  3.051021e-01
5.985129e+08 -9.520737e-01  3.058272e-01  1.549860e-03  4.824886e-03  1.549860e-03  4.824886e-03 -9.520737e-01  3.058272e-01
5.995543e+08 -9.518396e-01  3.065553e-01  1.559081e-03  4.840874e-03  1.559081e-03  4.840874e-03 -9.518396e-01  3.065553e-01
6.005976e+08 -9.516038e-01  3.072863e-01  1.568385e-03  4.856973e-03  1.568385e-03  4.856973e-03 -9.516038e-01  3.072863e-01
6.016427e+08 -9.513664e-01  3.080205e-01  1.577775e-03  4.873190e-03  1.577775e-03  4.873190e-03 -9.513664e-01  3.080205e-01
6.026895e+08 -9.511274e-01  3.087576e-01  1.587249e-03  4.889520e-03  1.587249e-03  4.889520e-03 -9.511274e-01  3.087576e-01
6.037383e+08 -9.508858e-01  3.094974e-01  1.596811e-03  4.905970e-03  1.596811e-03  4.905970e-03 -9.508858e-01  3.094974e-01
6.047888e+08 -9.506435e-01  3.102408e-01  1.606462e-03  4.922539e-03  1.606462e-03  4.922539e-03 -9.506435e-01  3.102408e-01
6.058412e+08 -9.503996e-01  3.109872e-01  1.616199e-03  4.939224e-03  1.616199e-03  4.939224e-03 -9.503996e-01  3.109872e-01
6.068953e+08 -9.501539e-01  3.117368e-01  1.626030e-03  4.956036e-03  1.626030e-03  4.956036e-03 -9.501539e-01  3.117368e-01
6.079514e+08 -9.499066e-01  3.124896e-01  1.635952e-03  4.972971e-03  1.635952e-03  4.972971e-03 -9.499066e-01  3.124896e-01
6.090092e+08 -9.496576e-01  3.132455e-01  1.645968e-03  4.990035e-03  1.645968e-03  4.990035e-03 -9.496576e-01  3.132455e-01
6.100690e+08 -9.494068e-01  3.140049e-01  1.656078e-03  5.007222e-03  1.656078e-03  5.007222e-03 -9.494068e-01  3.140049e-01
6.111305e+08 -9.491543e-01  3.147673e-01  1.666284e-03  5.024540e-03  1.666284e-03  5.024540e-03 -9.491543e-01  3.147673e-01
6.121939e+08 -9.489000e-01  3.155331e-01  1.676588e-03  5.041990e-03  1.676588e-03  5.041990e-03 -9.489000e-01  3.155331e-01
6.132592e+08 -9.486439e-01  3.163022e-01  1.686989e-03  5.059566e-03  1.686989e-03  5.059566e-03 -9.486439e-01  3.163022e-01
6.143263e+08 -9.483860e-01  3.170747e-01  1.697491e-03  5.077280e-03  1.697491e-03  5.077280e-03 -9.483860e-01  3.170747e-01
6.153952e+08 -9.481252e-01  3.178502e-01  1.708097e-03  5.095135e-03  1.708097e-03  5.095135e-03 -9.481252e-01  3.178502e-01
6.164660e+08 -9.478636e-01  3.186293e-01  1.718802e-03  5.113118e-03  1.718802e-03  5.113118e-03 -9.478636e-01  3.186293e-01
6.175387e+08 -9.476001e-01  3.194120e-01  1.729614e-03  5.131249e-03  1.729614e-03  5.131249e-03 -9.476001e-01  3.194120e-01
6.186133e+08 -9.473348e-01  3.201982e-01  1.740531e-03  5.149517e-03  1.740531e-03  5.149517e-03 -9.473348e-01  3.201982e-01
6.196897e+08 -9.470675e-01  3.209877e-01  1.751556e-03  5.167928e-03  1.751556e-03  5.167928e-03 -9.470675e-01  3.209877e-01
6.207680e+08 -9.467984e-01  3.217809e-01  1.762691e-03  5.186489e-03  1.762691e-03  5.186489e-03 -9.467984e-01  3.217809e-01
6.218482e+08 -9.465272e-01  3.225777e-01  1.773936e-03  5.205190e-03  1.773936e-03  5.205190e-03 -9.465272e-01  3.225777e-01
6.229302e+08 -9.462540e-01  3.233780e-01  1.785293e-03  5.224043e-03  1.785293e-03  5.224043e-03 -9.462540e-01  3.233780e-01
6.240141e+08 -9.459790e-01  3.241819e-01  1.796765e-03  5.243050e-03  1.796765e-03  5.243050e-03 -9.459790e-01  3.241819e-01
6.250999e+08 -9.457018e-01  3.249894e-01  1.808353e-03  5.262211e-03  1.808353e-03  5.262211e-03 -9.457018e-01  3.249894e-01
6.261877e+08 -9.454215e-01  3.258004e-01  1.820057e-03  5.281521e-03  1.820057e-03  5.281521e-03 -9.454215e-01  3.258004e-01
6.272773e+08 -9.451403e-01  3.266154e-01  1.831883e-03  5.300994e-03  1.831883e-03  5.300994e-03 -9.451403e-01  3.266154e-01
6.283688e+08 -9.448569e-01  3.274343e-01  1.843831e-03  5.320630e-03  1.843831e-03  5.320630e-03 -9.448569e-01  3.274343e-01
6.294621e+08 -9.445715e-01  3.282567e-01  1.855898e-03  5.340419e-03  1.855898e-03  5.340419e-03 -9.445715e-01  3.282567e-01
6.305574e+08 -9.442839e-01  3.290832e-01  1.868094e-03  5.360380e-03  1.868094e-03  5.360380e-03 -9.442839e-01  3.290832e-01
6.316546e+08 -9.439941e-01  3.299134e-01  1.880414e-03  5.380502e-03  1.880414e-03  5.380502e-03 -9.439941e-01  3.299134e-01
6.327538e+08 -9.437022e-01  3.307476e-01  1.892865e-03  5.400798e-03  1.892865e-03  5.400798e-03 -9.437022e-01  3.307476e-01
6.338548e+08 -9.434080e-01  3.315856e-01  1.905446e-03  5.421264e-03  1.905446e-03  5.421264e-03 -9.434080e-01  3.315856e-01
6.349577e+08 -9.431116e-01  3.324277e-01  1.918162e-03  5.441907e-03  1.918162e-03  5.441907e-03 -9.431116e-01  3.324277e-01
6.360626e+08 -9.428119e-01  3.332734e-01  1.931011e-03  5.462721e-03  1.931011e-03  5.462721e-03 -9.428119e-01  3.332734e-01
6.371694e+08 -9.425110e-01  3.341235e-01  1.943997e-03  5.483715e-03  1.943997e-03  5.483715e-03 -9.425110e-01  3.341235e-01
6.382781e+08 -9.422077e-01  3.349776e-01  1.957124e-03  5.504897e-03  1.957124e-03  5.504897e-03 -9.422077e-01  3.349776e-01
6.393887e+08 -9.419021e-01  3.358361e-01  1.970393e-03  5.526259e-03  1.970393e-03  5.526259e-03 -9.419021e-01  3.358361e-01
6.405013e+08 -9.415942e-01  3.366985e-01  1.983804e-03  5.547806e-03  1.983804e-03  5.547806e-03 -9.415942e-01  3.366985e-01
6.416158e+08 -9.412838e-01  3.375652e-01  1.997364e-03  5.569550e-03  1.997364e-03  5.569550e-03 -9.412838e-01  3.375652e-01
6.427322e+08 -9.409710e-01  3.384361e-01  2.011070e-03  5.591480e-03  2.011070e-03  5.591480e-03 -9.409710e-01  3.384361e-01
6.438506e+08 -9.406558e-01  3.393113e-01  2.024929e-03  5.613610e-03  2.024929e-03  5.613610e-03 -9.406558e-01  3.393113e-01
6.449710e+08 -9.403369e-01  3.401906e-01  2.038942e-03  5.635935e-03  2.038942e-03  5.635935e-03 -9.403369e-01  3.401906e-01
6.460932e+08 -9.400166e-01  3.410746e-01  2.053111e-03  5.658464e-03  2.053111e-03  5.658464e-03 -9.400166e-01  3.410746e-01
6.472175e+08 -9.396939e-01  3.419628e-01  2.067438e-03  5.681198e-03  2.067438e-03  5.681198e-03 -9.396939e-01  3.419628e-01
6.483437e+08 -9.393685e-01  3.428557e-01  2.081926e-03  5.704137e-03  2.081926e-03  5.704137e-03 -9.393685e-01  3.428557e-01
6.494718e+08 -9.390405e-01  3.437530e-01  2.096580e-03  5.727292e-03  2.096580e-03  5.727292e-03 -9.390405e-01  3.437530e-01
6.506019e+08 -9.387098e-01  3.446549e-01  2.111400e-03  5.750656e-03  2.111400e-03  5.750656e-03 -9.387098e-01  3.446549e-01
6.517340e+08 -9.383765e-01  3.455614e-01  2.126389e-03  5.774237e-03  2.126389e-03  5.774237e-03 -9.383765e-01  3.455614e-01
6.528681e+08 -9.380394e-01  3.464721e-01  2.141553e-03  5.798045e-03  2.141553e-03  5.798045e-03 -9.380394e-01  3.464721e-01
6.540041e+08 -9.377006e-01  3.473880e-01  2.156891e-03  5.822074e-03  2.156891e-03  5.822074e-03 -9.377006e-01  3.473880e-01
6.551421e+08 -9.373591e-01  3.483085e-01  2.172409e-03  5.846332e-03  2.172409e-03  5.846332e-03 -9.373591e-01  3.483085e-01
6.562821e+08 -9.370146e-01  3.492340e-01  2.188107e-03  5.870815e-03  2.188107e-03  5.870815e-03 -9.370146e-01  3.492340e-01
6.574240e+08 -9.366674e-01  3.501642e-01  2.203993e-03  5.895544e-03  2.203993e-03  5.895544e-03 -9.366674e-01  3.501642e-01
