# HZ S RI R 50.000000
! FREQ(HZ)    reS11         imS11         reS21         imS21         reS12         imS12         reS22         imS22       
5.005684e+08 -9.414687e-01  3.369876e-01  2.918559e-03  8.153806e-03  2.918559e-03  8.153806e-03 -9.414687e-01  3.369876e-01
5.014909e+08 -9.411920e-01  3.377598e-01  2.934269e-03  8.176552e-03  2.934269e-03  8.176552e-03 -9.411920e-01  3.377598e-01
5.024152e+08 -9.409135e-01  3.385347e-01  2.950097e-03  8.199412e-03  2.950097e-03  8.199412e-03 -9.409135e-01  3.385347e-01
5.033411e+08 -9.406335e-01  3.393120e-01  2.966035e-03  8.222378e-03  2.966035e-03  8.222378e-03 -9.406335e-01  3.393120e-01
5.042688e+08 -9.403517e-01  3.400922e-01  2.982097e-03  8.245468e-03  2.982097e-03  8.245468e-03 -9.403517e-01  3.400922e-01
5.051981e+08 -9.400672e-01  3.408744e-01  2.998275e-03  8.268675e-03  2.998275e-03  8.268675e-03 -9.400672e-01  3.408744e-01
5.061292e+08 -9.397820e-01  3.416599e-01  3.014574e-03  8.291997e-03  3.014574e-03  8.291997e-03 -9.397820e-01  3.416599e-01
5.070620e+08 -9.394952e-01  3.424479e-01  3.030997e-03  8.315446e-03  3.030997e-03  8.315446e-03 -9.394952e-01  3.424479e-01
5.079965e+08 -9.392066e-01  3.432386e-01  3.047538e-03  8.339003e-03  3.047538e-03  8.339003e-03 -9.392066e-01  3.432386e-01
5.089327e+08 -9.389162e-01  3.440320e-01  3.064209e-03  8.362697e-03  3.064209e-03  8.362697e-03 -9.389162e-01  3.440320e-01
5.098707e+08 -9.386230e-01  3.448278e-01  3.081000e-03  8.386499e-03  3.081000e-03  8.386499e-03 -9.386230e-01  3.448278e-01
5.108104e+08 -9.383291e-01  3.456268e-01  3.097921e-03  8.410430e-03  3.097921e-03  8.410430e-03 -9.383291e-01  3.456268e-01
5.117518e+08 -9.380335e-01  3.464283e-01  3.114970e-03  8.434490e-03  3.114970e-03  8.434490e-03 -9.380335e-01  3.464283e-01
5.126950e+08 -9.377360e-01  3.472328e-01  3.132152e-03  8.458680e-03  3.132152e-03  8.458680e-03 -9.377360e-01  3.472328e-01
5.136398e+08 -9.374356e-01  3.480397e-01  3.149461e-03  8.482990e-03  3.149461e-03  8.482990e-03 -9.374356e-01  3.480397e-01
5.145865e+08 -9.371345e-01  3.488496e-01  3.166903e-03  8.507431e-03  3.166903e-03  8.507431e-03 -9.371345e-01  3.488496e-01
5.155349e+08 -9.368315e-01  3.496625e-01  3.184480e-03  8.532003e-03  3.184480e-03  8.532003e-03 -9.368315e-01  3.496625e-01
5.164850e+08 -9.365267e-01  3.504781e-01  3.202192e-03  8.556707e-03  3.202192e-03  8.556707e-03 -9.365267e-01  3.504781e-01
5.174369e+08 -9.362199e-01  3.512967e-01  3.220042e-03  8.581543e-03  3.220042e-03  8.581543e-03 -9.362199e-01  3.512967e-01
5.183905e+08 -9.359102e-01  3.521178e-01  3.238030e-03  8.606512e-03  3.238030e-03  8.606512e-03 -9.359102e-01  3.521178e-01
5.193459e+08 -9.355996e-01  3.529422e-01  3.256159e-03  8.631614e-03  3.256159e-03  8.631614e-03 -9.355996e-01  3.529422e-01
5.203030e+08 -9.352871e-01  3.537695e-01  3.274427e-03  8.656851e-03  3.274427e-03  8.656851e-03 -9.352871e-01  3.537695e-01
5.212619e+08 -9.349727e-01  3.545996e-01  3.292840e-03  8.682233e-03  3.292840e-03  8.682233e-03 -9.349727e-01  3.545996e-01
5.222226e+08 -9.346552e-01  3.554324e-01  3.311399e-03  8.707749e-03  3.311399e-03  8.707749e-03 -9.346552e-01  3.554324e-01
5.231851e+08 -9.343368e-01  3.562684e-01  3.330104e-03  8.733412e-03  3.330104e-03  8.733412e-03 -9.343368e-01  3.562684e-01
5.241493e+08 -9.340164e-01  3.571076e-01  3.348957e-03  8.759211e-03  3.348957e-03  8.759211e-03 -9.340164e-01  3.571076e-01
5.251153e+08 -9.336940e-01  3.579498e-01  3.367958e-03  8.785148e-03  3.367958e-03  8.785148e-03 -9.336940e-01  3.579498e-01
5.260831e+08 -9.333685e-01  3.587945e-01  3.387114e-03  8.811242e-03  3.387114e-03  8.811242e-03 -9.333685e-01  3.587945e-01
5.270526e+08 -9.330420e-01  3.596428e-01  3.406421e-03  8.837474e-03  3.406421e-03  8.837474e-03 -9.330420e-01  3.596428e-01
5.280240e+08 -9.327134e-01  3.604940e-01  3.425883e-03  8.863857e-03  3.425883e-03  8.863857e-03 -9.327134e-01  3.604940e-01
5.289971e+08 -9.323828e-01  3.613483e-01  3.445502e-03  8.890388e-03  3.445502e-03  8.890388e-03 -9.323828e-01  3.613483e-01
5.299721e+08 -9.320489e-01  3.622055e-01  3.465282e-03  8.917070e-03  3.465282e-03  8.917070e-03 -9.320489e-01  3.622055e-01
5.309488e+08 -9.317140e-01  3.630660e-01  3.485219e-03  8.943904e-03  3.485219e-03  8.943904e-03 -9.317140e-01  3.630660e-01
5.319273e+08 -9.313769e-01  3.639299e-01  3.505320e-03  8.970889e-03  3.505320e-03  8.970889e-03 -9.313769e-01  3.639299e-01
5.329077e+08 -9.310366e-01  3.647964e-01  3.525587e-03  8.998037e-03  3.525587e-03  8.998037e-03 -9.310366e-01  3.647964e-01
5.338898e+08 -9.306952e-01  3.656665e-01  3.546020e-03  9.025338e-03  3.546020e-03  9.025338e-03 -9.306952e-01  3.656665e-01
5.348738e+08 -9.303516e-01  3.665399e-01  3.566620e-03  9.052793e-03  3.566620e-03  9.052793e-03 -9.303516e-01  3.665399e-01
5.358595e+08 -9.300057e-01  3.674166e-01  3.587392e-03  9.080413e-03  3.587392e-03  9.080413e-03 -9.300057e-01  3.674166e-01
5.368471e+08 -9.296566e-01  3.682960e-01  3.608332e-03  9.108189e-03  3.608332e-03  9.108189e-03 -9.296566e-01  3.682960e-01
5.378365e+08 -9.293062e-01  3.691791e-01  3.629448e-03  9.136132e-03  3.629448e-03  9.136132e-03 -9.293062e-01  3.691791e-01
5.388277e+08 -9.289536e-01  3.700657e-01  3.650743e-03  9.164241e-03  3.650743e-03  9.164241e-03 -9.289536e-01  3.700657e-01
5.398208e+08 -9.285975e-01  3.709550e-01  3.672216e-03  9.192519e-03  3.672216e-03  9.192519e-03 -9.285975e-01  3.709550e-01
5.408157e+08 -9.282402e-01  3.718482e-01  3.693870e-03  9.220965e-03  3.693870e-03  9.220965e-03 -9.282402e-01  3.718482e-01
5.418124e+08 -9.278806e-01  3.727447e-01  3.715707e-03  9.249582e-03  3.715707e-03  9.249582e-03 -9.278806e-01  3.727447e-01
5.428109e+08 -9.275186e-01  3.736446e-01  3.737728e-03  9.278368e-03  3.737728e-03  9.278368e-03 -9.275186e-01  3.736446e-01
5.438113e+08 -9.271531e-01  3.745475e-01  3.759935e-03  9.307327e-03  3.759935e-03  9.307327e-03 -9.271531e-01  3.745475e-01
5.448136e+08 -9.267863e-01  3.754543e-01  3.782336e-03  9.336467e-03  3.782336e-03  9.336467e-03 -9.267863e-01  3.754543e-01
5.458177e+08 -9.264170e-01  3.763645e-01  3.804925e-03  9.365781e-03  3.804925e-03  9.365781e-03 -9.264170e-01  3.763645e-01
5.468236e+08 -9.260442e-01  3.772779e-01  3.827709e-03  9.395268e-03  3.827709e-03  9.395268e-03 -9.260442e-01  3.772779e-01
5.478314e+08 -9.256700e-01  3.781951e-01  3.850693e-03  9.424952e-03  3.850693e-03  9.424952e-03 -9.256700e-01  3.781951e-01
5.488410e+08 -9.252932e-01  3.791160e-01  3.873875e-03  9.454811e-03  3.873875e-03  9.454811e-03 -9.252932e-01  3.791160e-01
5.498525e+08 -9.249128e-01  3.800399e-01  3.897258e-03  9.484858e-03  3.897258e-03  9.484858e-03 -9.249128e-01  3.800399e-01
5.508659e+08 -9.245310e-01  3.809679e-01  3.920847e-03  9.515092e-03  3.920847e-03  9.515092e-03 -9.245310e-01  3.809679e-01
5.518811e+08 -9.241465e-01  3.818996e-01  3.944643e-03  9.545514e-03  3.944643e-03  9.545514e-03 -9.241465e-01  3.818996e-01
5.528983e+08 -9.237585e-01  3.828343e-01  3.968646e-03  9.576128e-03  3.968646e-03  9.576128e-03 -9.237585e-01  3.828343e-01
5.539172e+08 -9.233688e-01  3.837732e-01  3.992865e-03  9.606942e-03  3.992865e-03  9.606942e-03 -9.233688e-01  3.837732e-01
5.549381e+08 -9.229765e-01  3.847158e-01  4.017298e-03  9.637949e-03  4.017298e-03  9.637949e-03 -9.229765e-01  3.847158e-01
5.559608e+08 -9.225804e-01  3.856617e-01  4.041946e-03  9.669148e-03  4.041946e-03  9.669148e-03 -9.225804e-01  3.856617e-01
5.569855e+08 -9.221826e-01  3.866119e-01  4.066817e-03  9.700552e-03  4.066817e-03  9.700552e-03 -9.221826e-01  3.866119e-01
5.580120e+08 -9.217821e-01  3.875658e-01  4.091913e-03  9.732161e-03  4.091913e-03  9.732161e-03 -9.217821e-01  3.875658e-01
5.590404e+08 -9.213778e-01  3.885230e-01  4.117236e-03  9.763977e-03  4.117236e-03  9.763977e-03 -9.213778e-01  3.885230e-01
5.600707e+08 -9.209717e-01  3.894846e-01  4.142784e-03  9.795989e-03  4.142784e-03  9.795989e-03 -9.209717e-01  3.894846e-01
5.611029e+08 -9.205629e-01  3.904499e-01  4.168568e-03  9.828222e-03  4.168568e-03  9.828222e-03 -9.205629e-01  3.904499e-01
5.621370e+08 -9.201501e-01  3.914188e-01  4.194586e-03  9.860665e-03  4.194586e-03  9.860665e-03 -9.201501e-01  3.914188e-01
5.631730e+08 -9.197355e-01  3.923921e-01  4.220848e-03  9.893329e-03  4.220848e-03  9.893329e-03 -9.197355e-01  3.923921e-01
5.642110e+08 -9.193169e-01  3.933688e-01  4.247344e-03  9.926194e-03  4.247344e-03  9.926194e-03 -9.193169e-01  3.933688e-01
5.652508e+08 -9.188965e-01  3.943499e-01  4.274091e-03  9.959295e-03  4.274091e-03  9.959295e-03 -9.188965e-01  3.943499e-01
5.662925e+08 -9.184731e-01  3.953351e-01  4.301083e-03  9.992610e-03  4.301083e-03  9.992610e-03 -9.184731e-01  3.953351e-01
5.673362e+08 -9.180455e-01  3.963239e-01  4.328329e-03  1.002615e-02  4.328329e-03  1.002615e-02 -9.180455e-01  3.963239e-01
5.683818e+08 -9.176161e-01  3.973171e-01  4.355828e-03  1.005992e-02  4.355828e-03  1.005992e-02 -9.176161e-01  3.973171e-01
5.694293e+08 -9.171825e-01  3.983142e-01  4.383588e-03  1.009392e-02  4.383588e-03  1.009392e-02 -9.171825e-01  3.983142e-01
5.704788e+08 -9.167469e-01  3.993157e-01  4.411608e-03  1.012815e-02  4.411608e-03  1.012815e-02 -9.167469e-01  3.993157e-01
5.715302e+08 -9.163082e-01  4.003214e-01  4.439896e-03  1.016262e-02  4.439896e-03  1.016262e-02 -9.163082e-01  4.003214e-01
5.725835e+08 -9.158653e-01  4.013308e-01  4.468451e-03  1.019732e-02  4.468451e-03  1.019732e-02 -9.158653e-01  4.013308e-01
5.736387e+08 -9.154202e-01  4.023449e-01  4.497281e-03  1.023227e-02  4.497281e-03  1.023227e-02 -9.154202e-01  4.023449e-01
5.746960e+08 -9.149709e-01  4.033629e-01  4.526390e-03  1.026747e-02  4.526390e-03  1.026747e-02 -9.149709e-01  4.033629e-01
5.757551e+08 -9.145193e-01  4.043857e-01  4.555775e-03  1.030290e-02  4.555775e-03  1.030290e-02 -9.145193e-01  4.043857e-01
5.768162e+08 -9.140635e-01  4.054122e-01  4.585449e-03  1.033859e-02  4.585449e-03  1.033859e-02 -9.140635e-01  4.054122e-01
5.778793e+08 -9.136053e-01  4.064437e-01  4.615411e-03  1.037453e-02  4.615411e-03  1.037453e-02 -9.136053e-01  4.064437e-01
5.789443e+08 -9.131437e-01  4.074795e-01  4.645664e-03  1.041073e-02  4.645664e-03  1.041073e-02 -9.131437e-01  4.074795e-01
5.800113e+08 -9.126778e-01  4.085194e-01  4.676217e-03  1.044719e-02  4.676217e-03  1.044719e-02 -9.126778e-01  4.085194e-01
5.810803e+08 -9.122094e-01  4.095640e-01  4.707072e-03  1.048392e-02  4.707072e-03  1.048392e-02 -9.122094e-01  4.095640e-01
5.821512e+08 -9.117365e-01  4.106130e-01  4.738230e-03  1.052090e-02  4.738230e-03  1.052090e-02 -9.117365e-01  4.106130e-01
5.832241e+08 -9.112612e-01  4.116668e-01  4.769697e-03  1.055815e-02  4.769697e-03  1.055815e-02 -9.112612e-01  4.116668e-01
5.842990e+08 -9.107813e-01  4.127246e-01  4.801483e-03  1.059569e-02  4.801483e-03  1.059569e-02 -9.107813e-01  4.127246e-01
5.853758e+08 -9.102988e-01  4.137876e-01  4.833587e-03  1.063349e-02  4.833587e-03  1.063349e-02 -9.102988e-01  4.137876e-01
5.864546e+08 -9.098117e-01  4.148548e-01  4.866012e-03  1.067157e-02  4.866012e-03  1.067157e-02 -9.098117e-01  4.148548e-01
5.875355e+08 -9.093219e-01  4.159274e-01  4.898769e-03  1.070994e-02  4.898769e-03  1.070994e-02 -9.093219e-01  4.159274e-01
5.886183e+08 -9.088274e-01  4.170039e-01  4.931858e-03  1.074860e-02  4.931858e-03  1.074860e-02 -9.088274e-01  4.170039e-01
5.897031e+08 -9.083302e-01  4.180858e-01  4.965283e-03  1.078754e-02  4.965283e-03  1.078754e-02 -9.083302e-01  4.180858e-01
5.907899e+08 -9.078282e-01  4.191721e-01  4.999055e-03  1.082678e-02  4.999055e-03  1.082678e-02 -9.078282e-01  4.191721e-01
5.918787e+08 -9.073234e-01  4.202637e-01  5.033173e-03  1.086631e-02  5.033173e-03  1.086631e-02 -9.073234e-01  4.202637e-01
5.929696e+08 -9.068136e-01  4.213597e-01  5.067648e-03  1.090615e-02  5.067648e-03  1.090615e-02 -9.068136e-01  4.213597e-01
5.940624e+08 -9.063010e-01  4.224611e-01  5.102479e-03  1.094629e-02  5.102479e-03  1.094629e-02 -9.063010e-01  4.224611e-01
5.951573e+08 -9.057834e-01  4.235670e-01  5.137675e-03  1.098674e-02  5.137675e-03  1.098674e-02 -9.057834e-01  4.235670e-01
5.962541e+08 -9.052629e-01  4.246784e-01  5.173241e-03  1.102750e-02  5.173241e-03  1.102750e-02 -9.052629e-01  4.246784e-01
5.973530e+08 -9.047372e-01  4.257945e-01  5.209188e-03  1.106859e-02  5.209188e-03  1.106859e-02 -9.047372e-01  4.257945e-01
5.984539e+08 -9.042075e-01  4.269156e-01  5.245514e-03  1.111000e-02  5.245514e-03  1.111000e-02 -9.042075e-01  4.269156e-01
5.995569e+08 -9.036747e-01  4.280422e-01  5.282221e-03  1.115173e-02  5.282221e-03  1.115173e-02 -9.036747e-01  4.280422e-01
6.006619e+08 -9.031366e-01  4.291737e-01  5.319325e-03  1.119378e-02  5.319325e-03  1.119378e-02 -9.031366e-01  4.291737e-01
6.017689e+08 -9.025953e-01  4.303109e-01  5.356836e-03  1.123619e-02  5.356836e-03  1.123619e-02 -9.025953e-01  4.303109e-01
6.028779e+08 -9.020487e-01  4.314530e-01  5.394746e-03  1.127892e-02  5.394746e-03  1.127892e-02 -9.020487e-01  4.314530e-01
6.039890e+08 -9.014987e-01  4.326008e-01  5.433070e-03  1.132200e-02  5.433070e-03  1.132200e-02 -9.014987e-01  4.326008e-01
6.051022e+08 -9.009435e-01  4.337534e-01  5.471809e-03  1.136542e-02  5.471809e-03  1.136542e-02 -9.009435e-01  4.337534e-01
6.062174e+08 -9.003837e-01  4.349116e-01  5.510976e-03  1.140920e-02  5.510976e-03  1.140920e-02 -9.003837e-01  4.349116e-01
6.073346e+08 -8.998204e-01  4.360757e-01  5.550580e-03  1.145335e-02  5.550580e-03  1.145335e-02 -8.998204e-01  4.360757e-01
6.084539e+08 -8.992516e-01  4.372448e-01  5.590616e-03  1.149784e-02  5.590616e-03  1.149784e-02 -8.992516e-01  4.372448e-01
6.095753e+08 -8.986782e-01  4.384195e-01  5.631102e-03  1.154271e-02  5.631102e-03  1.154271e-02 -8.986782e-01  4.384195e-01
6.106987e+08 -8.981012e-01  4.396004e-01  5.672043e-03  1.158795e-02  5.672043e-03  1.158795e-02 -8.981012e-01  4.396004e-01
6.118242e+08 -8.975184e-01  4.407864e-01  5.713440e-03  1.163357e-02  5.713440e-03  1.163357e-02 -8.975184e-01  4.407864e-01
6.129518e+08 -8.969308e-01  4.419782e-01  5.755311e-03  1.167957e-02  5.755311e-03  1.167957e-02 -8.969308e-01  4.419782e-01
6.140815e+08 -8.963395e-01  4.431761e-01  5.797655e-03  1.172596e-02  5.797655e-03  1.172596e-02 -8.963395e-01  4.431761e-01
6.152132e+08 -8.957423e-01  4.443795e-01  5.840480e-03  1.177274e-02  5.840480e-03  1.177274e-02 -8.957423e-01  4.443795e-01
6.163471e+08 -8.951400e-01  4.455888e-01  5.883805e-03  1.181993e-02  5.883805e-03  1.181993e-02 -8.951400e-01  4.455888e-01
6.174830e+08 -8.945339e-01  4.468043e-01  5.927620e-03  1.186752e-02  5.927620e-03  1.186752e-02 -8.945339e-01  4.468043e-01
6.186210e+08 -8.939216e-01  4.480255e-01  5.971951e-03  1.191552e-02  5.971951e-03  1.191552e-02 -8.939216e-01  4.480255e-01
6.197611e+08 -8.933042e-01  4.492528e-01  6.016796e-03  1.196393e-02  6.016796e-03  1.196393e-02 -8.933042e-01  4.492528e-01
6.209033e+08 -8.926816e-01  4.504860e-01  6.062166e-03  1.201277e-02  6.062166e-03  1.201277e-02 -8.926816e-01  4.504860e-01
6.220476e+08 -8.920547e-01  4.517261e-01  6.108079e-03  1.206205e-02  6.108079e-03  1.206205e-02 -8.920547e-01  4.517261e-01
6.231941e+08 -8.914216e-01  4.529717e-01  6.154526e-03  1.211174e-02  6.154526e-03  1.211174e-02 -8.914216e-01  4.529717e-01
6.243426e+08 -8.907829e-01  4.542238e-01  6.201531e-03  1.216188e-02  6.201531e-03  1.216188e-02 -8.907829e-01  4.542238e-01
6.254933e+08 -8.901389e-01  4.554822e-01  6.249099e-03  1.221248e-02  6.249099e-03  1.221248e-02 -8.901389e-01  4.554822e-01
6.266460e+08 -8.894893e-01  4.567469e-01  6.297238e-03  1.226352e-02  6.297238e-03  1.226352e-02 -8.894893e-01  4.567469e-01
6.278009e+08 -8.888352e-01  4.580185e-01  6.345963e-03  1.231504e-02  6.345963e-03  1.231504e-02 -8.888352e-01  4.580185e-01
6.289580e+08 -8.881743e-01  4.592962e-01  6.395278e-03  1.236701e-02  6.395278e-03  1.236701e-02 -8.881743e-01  4.592962e-01
6.301171e+08 -8.875077e-01  4.605805e-01  6.445194e-03  1.241946e-02  6.445194e-03  1.241946e-02 -8.875077e-01  4.605805e-01
6.312784e+08 -8.868352e-01  4.618715e-01  6.495725e-03  1.247238e-02  6.495725e-03  1.247238e-02 -8.868352e-01  4.618715e-01
6.324419e+08 -8.861569e-01  4.631692e-01  6.546885e-03  1.252580e-02  6.546885e-03  1.252580e-02 -8.861569e-01  4.631692e-01
6.336074e+08 -8.854726e-01  4.644735e-01  6.598671e-03  1.257971e-02  6.598671e-03  1.257971e-02 -8.854726e-01  4.644735e-01
6.347752e+08 -8.847822e-01  4.657849e-01  6.651114e-03  1.263413e-02  6.651114e-03  1.263413e-02 -8.847822e-01  4.657849e-01
6.359451e+08 -8.840867e-01  4.671036e-01  6.704212e-03  1.268906e-02  6.704212e-03  1.268906e-02 -8.840867e-01  4.671036e-01
6.371171e+08 -8.833840e-01  4.684288e-01  6.757982e-03  1.274451e-02  6.757982e-03  1.274451e-02 -8.833840e-01  4.684288e-01
6.382913e+08 -8.826749e-01  4.697610e-01  6.812437e-03  1.280048e-02  6.812437e-03  1.280048e-02 -8.826749e-01  4.697610e-01
6.394677e+08 -8.819595e-01  4.711004e-01  6.867584e-03  1.285699e-02  6.867584e-03  1.285699e-02 -8.819595e-01  4.711004e-01
6.406462e+08 -8.812376e-01  4.724470e-01  6.923442e-03  1.291404e-02  6.923442e-03  1.291404e-02 -8.812376e-01  4.724470e-01
6.418269e+08 -8.805091e-01  4.738009e-01  6.980031e-03  1.297165e-02  6.980031e-03  1.297165e-02 -8.805091e-01  4.738009e-01
6.430098e+08 -8.797741e-01  4.751620e-01  7.037342e-03  1.302981e-02  7.037342e-03  1.302981e-02 -8.797741e-01  4.751620e-01
6.441948e+08 -8.790321e-01  4.765306e-01  7.095407e-03  1.308854e-02  7.095407e-03  1.308854e-02 -8.790321e-01  4.765306e-01
6.453821e+08 -8.782835e-01  4.779066e-01  7.154232e-03  1.314785e-02  7.154232e-03  1.314785e-02 -8.782835e-01  4.779066e-01
6.465715e+08 -8.775279e-01  4.792903e-01  7.213842e-03  1.320775e-02  7.213842e-03  1.320775e-02 -8.775279e-01  4.792903e-01
6.477631e+08 -8.767652e-01  4.806816e-01  7.274238e-03  1.326824e-02  7.274238e-03  1.326824e-02 -8.767652e-01  4.806816e-01
6.489570e+08 -8.759944e-01  4.820801e-01  7.335440e-03  1.332933e-02  7.335440e-03  1.332933e-02 -8.759944e-01  4.820801e-01
6.501530e+08 -8.752175e-01  4.834869e-01  7.397469e-03  1.339105e-02  7.397469e-03  1.339105e-02 -8.752175e-01  4.834869e-01
6.513512e+08 -8.744331e-01  4.849017e-01  7.460342e-03  1.345339e-02  7.460342e-03  1.345339e-02 -8.744331e-01  4.849017e-01
6.525516e+08 -8.736413e-01  4.863244e-01  7.524057e-03  1.351634e-02  7.524057e-03  1.351634e-02 -8.736413e-01  4.863244e-01
6.537543e+08 -8.728420e-01  4.877551e-01  7.588656e-03  1.357996e-02  7.588656e-03  1.357996e-02 -8.728420e-01  4.877551e-01
6.549591e+08 -8.720351e-01  4.891940e-01  7.654135e-03  1.364423e-02  7.654135e-03  1.364423e-02 -8.720351e-01  4.891940e-01
6.561662e+08 -8.712194e-01  4.906405e-01  7.720526e-03  1.370917e-02  7.720526e-03  1.370917e-02 -8.712194e-01  4.906405e-01
6.573755e+08 -8.703968e-01  4.920959e-01  7.787845e-03  1.377478e-02  7.787845e-03  1.377478e-02 -8.703968e-01  4.920959e-01
6.585871e+08 -8.695662e-01  4.935599e-01  7.856097e-03  1.384107e-02  7.856097e-03  1.384107e-02 -8.695662e-01  4.935599e-01
6.598008e+08 -8.687276e-01  4.950321e-01  7.925321e-03  1.390808e-02  7.925321e-03  1.390808e-02 -8.687276e-01  4.950321e-01
6.610168e+08 -8.678797e-01  4.965125e-01  7.995520e-03  1.397578e-02  7.995520e-03  1.397578e-02 -8.678797e-01  4.965125e-01
6.622351e+08 -8.670245e-01  4.980021e-01  8.066724e-03  1.404421e-02  8.066724e-03  1.404421e-02 -8.670245e-01  4.980021e-01
6.634556e+08 -8.661608e-01  4.995005e-01  8.138950e-03  1.411338e-02  8.138950e-03  1.411338e-02 -8.661608e-01  4.995005e-01
6.646783e+08 -8.652875e-01  5.010071e-01  8.212216e-03  1.418329e-02  8.212216e-03  1.418329e-02 -8.652875e-01  5.010071e-01
6.659033e+08 -8.644065e-01  5.025234e-01  8.286550e-03  1.425396e-02  8.286550e-03  1.425396e-02 -8.644065e-01  5.025234e-01
6.671306e+08 -8.635157e-01  5.040480e-01  8.361967e-03  1.432540e-02  8.361967e-03  1.432540e-02 -8.635157e-01  5.040480e-01
6.683601e+08 -8.626168e-01  5.055826e-01  8.438497e-03  1.439763e-02  8.438497e-03  1.439763e-02 -8.626168e-01  5.055826e-01
