# HZ S RI R 50.000000
! FREQ(HZ)    reS11         imS11         reS21         imS21         reS12         imS12         reS22         imS22       
5.002240e+08 -9.562810e-01  2.923904e-01  1.744546e-03  5.705649e-03  1.744546e-03  5.705649e-03 -9.562810e-01  2.923904e-01
5.011202e+08 -9.560833e-01  2.930322e-01  1.753381e-03  5.720800e-03  1.753381e-03  5.720800e-03 -9.560833e-01  2.930322e-01
5.020179e+08 -9.558857e-01  2.936762e-01  1.762276e-03  5.736024e-03  1.762276e-03  5.736024e-03 -9.558857e-01  2.936762e-01
5.029173e+08 -9.556869e-01  2.943225e-01  1.771232e-03  5.751321e-03  1.771232e-03  5.751321e-03 -9.556869e-01  2.943225e-01
5.038183e+08 -9.554870e-01  2.949708e-01  1.780248e-03  5.766686e-03  1.780248e-03  5.766686e-03 -9.554870e-01  2.949708e-01
5.047209e+08 -9.552859e-01  2.956212e-01  1.789329e-03  5.782130e-03  1.789329e-03  5.782130e-03 -9.552859e-01  2.956212e-01
5.056251e+08 -9.550838e-01  2.962737e-01  1.798472e-03  5.797650e-03  1.798472e-03  5.797650e-03 -9.550838e-01  2.962737e-01
5.065309e+08 -9.548805e-01  2.969283e-01  1.807676e-03  5.813237e-03  1.807676e-03  5.813237e-03 -9.548805e-01  2.969283e-01
5.074383e+08 -9.546760e-01  2.975850e-01  1.816946e-03  5.828906e-03  1.816946e-03  5.828906e-03 -9.546760e-01  2.975850e-01
5.083474e+08 -9.544704e-01  2.982438e-01  1.826280e-03  5.844650e-03  1.826280e-03  5.844650e-03 -9.544704e-01  2.982438e-01
5.092581e+08 -9.542636e-01  2.989049e-01  1.835682e-03  5.860476e-03  1.835682e-03  5.860476e-03 -9.542636e-01  2.989049e-01
5.101705e+08 -9.540556e-01  2.995680e-01  1.845149e-03  5.876378e-03  1.845149e-03  5.876378e-03 -9.540556e-01  2.995680e-01
5.110844e+08 -9.538454e-01  3.002330e-01  1.854682e-03  5.892356e-03  1.854682e-03  5.892356e-03 -9.538454e-01  3.002330e-01
5.120000e+08 -9.536350e-01  3.009005e-01  1.864281e-03  5.908411e-03  1.864281e-03  5.908411e-03 -9.536350e-01  3.009005e-01
5.129173e+08 -9.534235e-01  3.015702e-01  1.873949e-03  5.924550e-03  1.873949e-03  5.924550e-03 -9.534235e-01  3.015702e-01
5.138362e+08 -9.532107e-01  3.022420e-01  1.883685e-03  5.940765e-03  1.883685e-03  5.940765e-03 -9.532107e-01  3.022420e-01
5.147567e+08 -9.529967e-01  3.029161e-01  1.893493e-03  5.957073e-03  1.893493e-03  5.957073e-03 -9.529967e-01  3.029161e-01
5.156789e+08 -9.527814e-01  3.035925e-01  1.903369e-03  5.973451e-03  1.903369e-03  5.973451e-03 -9.527814e-01  3.035925e-01
5.166027e+08 -9.525649e-01  3.042712e-01  1.913319e-03  5.989921e-03  1.913319e-03  5.989921e-03 -9.525649e-01  3.042712e-01
5.175282e+08 -9.523472e-01  3.049519e-01  1.923337e-03  6.006470e-03  1.923337e-03  6.006470e-03 -9.523472e-01  3.049519e-01
5.184554e+08 -9.521281e-01  3.056351e-01  1.933429e-03  6.023105e-03  1.933429e-03  6.023105e-03 -9.521281e-01  3.056351e-01
5.193842e+08 -9.519079e-01  3.063206e-01  1.943594e-03  6.039826e-03  1.943594e-03  6.039826e-03 -9.519079e-01  3.063206e-01
5.203147e+08 -9.516852e-01  3.070079e-01  1.953831e-03  6.056627e-03  1.953831e-03  6.056627e-03 -9.516852e-01  3.070079e-01
5.212468e+08 -9.514623e-01  3.076980e-01  1.964146e-03  6.073522e-03  1.964146e-03  6.073522e-03 -9.514623e-01  3.076980e-01
5.221806e+08 -9.512381e-01  3.083904e-01  1.974535e-03  6.090504e-03  1.974535e-03  6.090504e-03 -9.512381e-01  3.083904e-01
5.231161e+08 -9.510126e-01  3.090851e-01  1.985000e-03  6.107574e-03  1.985000e-03  6.107574e-03 -9.510126e-01  3.090851e-01
5.240533e+08 -9.507858e-01  3.097822e-01  1.995542e-03  6.124733e-03  1.995542e-03  6.124733e-03 -9.507858e-01  3.097822e-01
5.249921e+08 -9.505576e-01  3.104817e-01  2.006162e-03  6.141980e-03  2.006162e-03  6.141980e-03 -9.505576e-01  3.104817e-01
5.259326e+08 -9.503280e-01  3.111836e-01  2.016862e-03  6.159324e-03  2.016862e-03  6.159324e-03 -9.503280e-01  3.111836e-01
5.268749e+08 -9.500971e-01  3.118879e-01  2.027641e-03  6.176757e-03  2.027641e-03  6.176757e-03 -9.500971e-01  3.118879e-01
5.278188e+08 -9.498648e-01  3.125945e-01  2.038498e-03  6.194280e-03  2.038498e-03  6.194280e-03 -9.498648e-01  3.125945e-01
5.287643e+08 -9.496301e-01  3.133033e-01  2.049439e-03  6.211900e-03  2.049439e-03  6.211900e-03 -9.496301e-01  3.133033e-01
5.297116e+08 -9.493950e-01  3.140149e-01  2.060463e-03  6.229618e-03  2.060463e-03  6.229618e-03 -9.493950e-01  3.140149e-01
5.306606e+08 -9.491585e-01  3.147290e-01  2.071568e-03  6.247428e-03  2.071568e-03  6.247428e-03 -9.491585e-01  3.147290e-01
5.316113e+08 -9.489206e-01  3.154456e-01  2.082756e-03  6.265329e-03  2.082756e-03  6.265329e-03 -9.489206e-01  3.154456e-01
5.325637e+08 -9.486813e-01  3.161646e-01  2.094031e-03  6.283337e-03  2.094031e-03  6.283337e-03 -9.486813e-01  3.161646e-01
5.335177e+08 -9.484405e-01  3.168861e-01  2.105393e-03  6.301444e-03  2.105393e-03  6.301444e-03 -9.484405e-01  3.168861e-01
5.344735e+08 -9.481983e-01  3.176102e-01  2.116839e-03  6.319645e-03  2.116839e-03  6.319645e-03 -9.481983e-01  3.176102e-01
5.354311e+08 -9.479546e-01  3.183369e-01  2.128374e-03  6.337946e-03  2.128374e-03  6.337946e-03 -9.479546e-01  3.183369e-01
5.363903e+08 -9.477083e-01  3.190658e-01  2.140000e-03  6.356355e-03  2.140000e-03  6.356355e-03 -9.477083e-01  3.190658e-01
5.373512e+08 -9.474616e-01  3.197974e-01  2.151711e-03  6.374860e-03  2.151711e-03  6.374860e-03 -9.474616e-01  3.197974e-01
5.383139e+08 -9.472134e-01  3.205319e-01  2.163517e-03  6.393473e-03  2.163517e-03  6.393473e-03 -9.472134e-01  3.205319e-01
5.392783e+08 -9.469637e-01  3.212689e-01  2.175413e-03  6.412189e-03  2.175413e-03  6.412189e-03 -9.469637e-01  3.212689e-01
5.402444e+08 -9.467124e-01  3.220086e-01  2.187401e-03  6.431008e-03  2.187401e-03  6.431008e-03 -9.467124e-01  3.220086e-01
5.412122e+08 -9.464596e-01  3.227509e-01  2.199485e-03  6.449939e-03  2.199485e-03  6.449939e-03 -9.464596e-01  3.227509e-01
5.421818e+08 -9.462053e-01  3.234958e-01  2.211662e-03  6.468973e-03  2.211662e-03  6.468973e-03 -9.462053e-01  3.234958e-01
5.431531e+08 -9.459493e-01  3.242435e-01  2.223936e-03  6.488120e-03  2.223936e-03  6.488120e-03 -9.459493e-01  3.242435e-01
5.441262e+08 -9.456907e-01  3.249934e-01  2.236307e-03  6.507379e-03  2.236307e-03  6.507379e-03 -9.456907e-01  3.249934e-01
5.451010e+08 -9.454315e-01  3.257466e-01  2.248777e-03  6.526744e-03  2.248777e-03  6.526744e-03 -9.454315e-01  3.257466e-01
5.460776e+08 -9.451708e-01  3.265024e-01  2.261345e-03  6.546223e-03  2.261345e-03  6.546223e-03 -9.451708e-01  3.265024e-01
5.470558e+08 -9.449084e-01  3.272609e-01  2.274014e-03  6.565816e-03  2.274014e-03  6.565816e-03 -9.449084e-01  3.272609e-01
5.480359e+08 -9.446444e-01  3.280223e-01  2.286785e-03  6.585524e-03  2.286785e-03  6.585524e-03 -9.446444e-01  3.280223e-01
5.490177e+08 -9.443787e-01  3.287865e-01  2.299659e-03  6.605348e-03  2.299659e-03  6.605348e-03 -9.443787e-01  3.287865e-01
5.500013e+08 -9.441113e-01  3.295535e-01  2.312639e-03  6.625295e-03  2.312639e-03  6.625295e-03 -9.441113e-01  3.295535e-01
5.509866e+08 -9.438412e-01  3.303228e-01  2.325721e-03  6.645351e-03  2.325721e-03  6.645351e-03 -9.438412e-01  3.303228e-01
5.519737e+08 -9.435704e-01  3.310955e-01  2.338911e-03  6.665532e-03  2.338911e-03  6.665532e-03 -9.435704e-01  3.310955e-01
5.529626e+08 -9.432979e-01  3.318710e-01  2.352211e-03  6.685838e-03  2.352211e-03  6.685838e-03 -9.432979e-01  3.318710e-01
5.539532e+08 -9.430237e-01  3.326495e-01  2.365617e-03  6.706256e-03  2.365617e-03  6.706256e-03 -9.430237e-01  3.326495e-01
5.549456e+08 -9.427477e-01  3.334308e-01  2.379136e-03  6.726807e-03  2.379136e-03  6.726807e-03 -9.427477e-01  3.334308e-01
5.559398e+08 -9.424699e-01  3.342153e-01  2.392766e-03  6.747478e-03  2.392766e-03  6.747478e-03 -9.424699e-01  3.342153e-01
5.569357e+08 -9.421904e-01  3.350024e-01  2.406509e-03  6.768278e-03  2.406509e-03  6.768278e-03 -9.421904e-01  3.350024e-01
5.579335e+08 -9.419079e-01  3.357924e-01  2.420368e-03  6.789205e-03  2.420368e-03  6.789205e-03 -9.419079e-01  3.357924e-01
5.589330e+08 -9.416247e-01  3.365856e-01  2.434342e-03  6.810263e-03  2.434342e-03  6.810263e-03 -9.416247e-01  3.365856e-01
5.599344e+08 -9.413397e-01  3.373819e-01  2.448433e-03  6.831450e-03  2.448433e-03  6.831450e-03 -9.413397e-01  3.373819e-01
5.609375e+08 -9.410529e-01  3.381813e-01  2.462643e-03  6.852768e-03  2.462643e-03  6.852768e-03 -9.410529e-01  3.381813e-01
5.619424e+08 -9.407641e-01  3.389836e-01  2.476973e-03  6.874217e-03  2.476973e-03  6.874217e-03 -9.407641e-01  3.389836e-01
5.629491e+08 -9.404735e-01  3.397890e-01  2.491425e-03  6.895807e-03  2.491425e-03  6.895807e-03 -9.404735e-01  3.397890e-01
5.639576e+08 -9.401799e-01  3.405973e-01  2.506000e-03  6.917529e-03  2.506000e-03  6.917529e-03 -9.401799e-01  3.405973e-01
5.649680e+08 -9.398855e-01  3.414089e-01  2.520701e-03  6.939392e-03  2.520701e-03  6.939392e-03 -9.398855e-01  3.414089e-01
5.659801e+08 -9.395890e-01  3.422239e-01  2.535527e-03  6.961390e-03  2.535527e-03  6.961390e-03 -9.395890e-01  3.422239e-01
5.669941e+08 -9.392907e-01  3.430419e-01  2.550484e-03  6.983538e-03  2.550484e-03  6.983538e-03 -9.392907e-01  3.430419e-01
5.680098e+08 -9.389904e-01  3.438631e-01  2.565568e-03  7.005823e-03  2.565568e-03  7.005823e-03 -9.389904e-01  3.438631e-01
5.690274e+08 -9.386880e-01  3.446876e-01  2.580784e-03  7.028251e-03  2.580784e-03  7.028251e-03 -9.386880e-01  3.446876e-01
5.700468e+08 -9.383825e-01  3.455151e-01  2.596134e-03  7.050825e-03  2.596134e-03  7.050825e-03 -9.383825e-01  3.455151e-01
5.710681e+08 -9.380762e-01  3.463460e-01  2.611618e-03  7.073553e-03  2.611618e-03  7.073553e-03 -9.380762e-01  3.463460e-01
5.720911e+08 -9.377677e-01  3.471804e-01  2.627239e-03  7.096427e-03  2.627239e-03  7.096427e-03 -9.377677e-01  3.471804e-01
5.731160e+08 -9.374571e-01  3.480180e-01  2.642998e-03  7.119450e-03  2.642998e-03  7.119450e-03 -9.374571e-01  3.480180e-01
5.741428e+08 -9.371445e-01  3.488591e-01  2.658897e-03  7.142628e-03  2.658897e-03  7.142628e-03 -9.371445e-01  3.488591e-01
5.751714e+08 -9.368297e-01  3.497034e-01  2.674939e-03  7.165965e-03  2.674939e-03  7.165965e-03 -9.368297e-01  3.497034e-01
5.762018e+08 -9.365118e-01  3.505508e-01  2.691122e-03  7.189451e-03  2.691122e-03  7.189451e-03 -9.365118e-01  3.505508e-01
5.772340e+08 -9.361927e-01  3.514021e-01  2.707452e-03  7.213096e-03  2.707452e-03  7.213096e-03 -9.361927e-01  3.514021e-01
5.782682e+08 -9.358715e-01  3.522567e-01  2.723932e-03  7.236911e-03  2.723932e-03  7.236911e-03 -9.358715e-01  3.522567e-01
5.793041e+08 -9.355480e-01  3.531149e-01  2.740558e-03  7.260877e-03  2.740558e-03  7.260877e-03 -9.355480e-01  3.531149e-01
5.803420e+08 -9.352223e-01  3.539765e-01  2.757338e-03  7.285013e-03  2.757338e-03  7.285013e-03 -9.352223e-01  3.539765e-01
5.813816e+08 -9.348933e-01  3.548414e-01  2.774270e-03  7.309313e-03  2.774270e-03  7.309313e-03 -9.348933e-01  3.548414e-01
5.824232e+08 -9.345631e-01  3.557101e-01  2.791359e-03  7.333784e-03  2.791359e-03  7.333784e-03 -9.345631e-01  3.557101e-01
5.834666e+08 -9.342306e-01  3.565824e-01  2.808604e-03  7.358420e-03  2.808604e-03  7.358420e-03 -9.342306e-01  3.565824e-01
5.845119e+08 -9.338957e-01  3.574585e-01  2.826010e-03  7.383230e-03  2.826010e-03  7.383230e-03 -9.338957e-01  3.574585e-01
5.855590e+08 -9.335586e-01  3.583381e-01  2.843580e-03  7.408224e-03  2.843580e-03  7.408224e-03 -9.335586e-01  3.583381e-01
5.866081e+08 -9.332180e-01  3.592209e-01  2.861312e-03  7.433385e-03  2.861312e-03  7.433385e-03 -9.332180e-01  3.592209e-01
5.876590e+08 -9.328761e-01  3.601080e-01  2.879209e-03  7.458723e-03  2.879209e-03  7.458723e-03 -9.328761e-01  3.601080e-01
5.887118e+08 -9.325317e-01  3.609987e-01  2.897278e-03  7.484247e-03  2.897278e-03  7.484247e-03 -9.325317e-01  3.609987e-01
5.897664e+08 -9.321849e-01  3.618934e-01  2.915518e-03  7.509950e-03  2.915518e-03  7.509950e-03 -9.321849e-01  3.618934e-01
5.908230e+08 -9.318357e-01  3.627917e-01  2.933930e-03  7.535843e-03  2.933930e-03  7.535843e-03 -9.318357e-01  3.627917e-01
5.918815e+08 -9.314829e-01  3.636934e-01  2.952520e-03  7.561925e-03  2.952520e-03  7.561925e-03 -9.314829e-01  3.636934e-01
5.929418e+08 -9.311286e-01  3.645996e-01  2.971287e-03  7.588189e-03  2.971287e-03  7.588189e-03 -9.311286e-01  3.645996e-01
5.940041e+08 -9.307718e-01  3.655095e-01  2.990237e-03  7.614654e-03  2.990237e-03  7.614654e-03 -9.307718e-01  3.655095e-01
5.950682e+08 -9.304124e-01  3.664232e-01  3.009369e-03  7.641313e-03  3.009369e-03  7.641313e-03 -9.304124e-01  3.664232e-01
5.961343e+08 -9.300494e-01  3.673406e-01  3.028687e-03  7.668166e-03  3.028687e-03  7.668166e-03 -9.300494e-01  3.673406e-01
5.972023e+08 -9.296847e-01  3.682624e-01  3.048196e-03  7.695223e-03  3.048196e-03  7.695223e-03 -9.296847e-01  3.682624e-01
5.982722e+08 -9.293175e-01  3.691883e-01  3.067894e-03  7.722477e-03  3.067894e-03  7.722477e-03 -9.293175e-01  3.691883e-01
5.993440e+08 -9.289475e-01  3.701183e-01  3.087792e-03  7.749946e-03  3.087792e-03  7.749946e-03 -9.289475e-01  3.701183e-01
6.004177e+08 -9.285748e-01  3.710523e-01  3.107883e-03  7.777614e-03  3.107883e-03  7.777614e-03 -9.285748e-01  3.710523e-01
6.014933e+08 -9.281983e-01  3.719899e-01  3.128172e-03  7.805492e-03  3.128172e-03  7.805492e-03 -9.281983e-01  3.719899e-01
6.025709e+08 -9.278201e-01  3.729322e-01  3.148668e-03  7.833589e-03  3.148668e-03  7.833589e-03 -9.278201e-01  3.729322e-01
6.036504e+08 -9.274391e-01  3.738787e-01  3.169368e-03  7.861898e-03  3.169368e-03  7.861898e-03 -9.274391e-01  3.738787e-01
6.047319e+08 -9.270553e-01  3.748295e-01  3.190279e-03  7.890429e-03  3.190279e-03  7.890429e-03 -9.270553e-01  3.748295e-01
6.058152e+08 -9.266675e-01  3.757840e-01  3.211402e-03  7.919184e-03  3.211402e-03  7.919184e-03 -9.266675e-01  3.757840e-01
6.069005e+08 -9.262779e-01  3.767433e-01  3.232738e-03  7.948155e-03  3.232738e-03  7.948155e-03 -9.262779e-01  3.767433e-01
6.079878e+08 -9.258854e-01  3.777070e-01  3.254296e-03  7.977361e-03  3.254296e-03  7.977361e-03 -9.258854e-01  3.777070e-01
6.090770e+08 -9.254889e-01  3.786745e-01  3.276073e-03  8.006795e-03  3.276073e-03  8.006795e-03 -9.254889e-01  3.786745e-01
6.101682e+08 -9.250904e-01  3.796470e-01  3.298078e-03  8.036467e-03  3.298078e-03  8.036467e-03 -9.250904e-01  3.796470e-01
6.112613e+08 -9.246888e-01  3.806239e-01  3.320309e-03  8.066370e-03  3.320309e-03  8.066370e-03 -9.246888e-01  3.806239e-01
6.123564e+08 -9.242842e-01  3.816054e-01  3.342778e-03  8.096523e-03  3.342778e-03  8.096523e-03 -9.242842e-01  3.816054e-01
6.134534e+08 -9.238755e-01  3.825909e-01  3.365477e-03  8.126910e-03  3.365477e-03  8.126910e-03 -9.238755e-01  3.825909e-01
6.145524e+08 -9.234647e-01  3.835814e-01  3.388418e-03  8.157551e-03  3.388418e-03  8.157551e-03 -9.234647e-01  3.835814e-01
6.156534e+08 -9.230507e-01  3.845766e-01  3.411602e-03  8.188438e-03  3.411602e-03  8.188438e-03 -9.230507e-01  3.845766e-01
6.167563e+08 -9.226335e-01  3.855765e-01  3.435034e-03  8.219581e-03  3.435034e-03  8.219581e-03 -9.226335e-01  3.855765e-01
6.178612e+08 -9.222119e-01  3.865806e-01  3.458713e-03  8.250974e-03  3.458713e-03  8.250974e-03 -9.222119e-01  3.865806e-01
6.189681e+08 -9.217882e-01  3.875899e-01  3.482651e-03  8.282637e-03  3.482651e-03  8.282637e-03 -9.217882e-01  3.875899e-01
6.200770e+08 -9.213611e-01  3.886040e-01  3.506847e-03  8.314562e-03  3.506847e-03  8.314562e-03 -9.213611e-01  3.886040e-01
6.211879e+08 -9.209296e-01  3.896225e-01  3.531308e-03  8.346760e-03  3.531308e-03  8.346760e-03 -9.209296e-01  3.896225e-01
6.223007e+08 -9.204958e-01  3.906463e-01  3.556033e-03  8.379224e-03  3.556033e-03  8.379224e-03 -9.204958e-01  3.906463e-01
6.234156e+08 -9.200585e-01  3.916751e-01  3.581030e-03  8.411965e-03  3.581030e-03  8.411965e-03 -9.200585e-01  3.916751e-01
6.245324e+08 -9.196167e-01  3.927084e-01  3.606307e-03  8.444994e-03  3.606307e-03  8.444994e-03 -9.196167e-01  3.927084e-01
6.256513e+08 -9.191725e-01  3.937471e-01  3.631858e-03  8.478295e-03  3.631858e-03  8.478295e-03 -9.191725e-01  3.937471e-01
6.267722e+08 -9.187247e-01  3.947909e-01  3.657700e-03  8.511897e-03  3.657700e-03  8.511897e-03 -9.187247e-01  3.947909e-01
6.278950e+08 -9.182721e-01  3.958395e-01  3.683830e-03  8.545783e-03  3.683830e-03  8.545783e-03 -9.182721e-01  3.958395e-01
6.290199e+08 -9.178170e-01  3.968934e-01  3.710252e-03  8.579967e-03  3.710252e-03  8.579967e-03 -9.178170e-01  3.968934e-01
6.301468e+08 -9.173582e-01  3.979528e-01  3.736974e-03  8.614448e-03  3.736974e-03  8.614448e-03 -9.173582e-01  3.979528e-01
6.312757e+08 -9.168946e-01  3.990170e-01  3.764002e-03  8.649239e-03  3.764002e-03  8.649239e-03 -9.168946e-01  3.990170e-01
6.324066e+08 -9.164282e-01  4.000868e-01  3.791340e-03  8.684343e-03  3.791340e-03  8.684343e-03 -9.164282e-01  4.000868e-01
6.335396e+08 -9.159580e-01  4.011622e-01  3.818990e-03  8.719751e-03  3.818990e-03  8.719751e-03 -9.159580e-01  4.011622e-01
6.346746e+08 -9.154829e-01  4.022423e-01  3.846961e-03  8.755486e-03  3.846961e-03  8.755486e-03 -9.154829e-01  4.022423e-01
6.358116e+08 -9.150049e-01  4.033285e-01  3.875256e-03  8.791539e-03  3.875256e-03  8.791539e-03 -9.150049e-01  4.033285e-01
6.369506e+08 -9.145229e-01  4.044203e-01  3.903889e-03  8.827934e-03  3.903889e-03  8.827934e-03 -9.145229e-01  4.044203e-01
6.380917e+08 -9.140359e-01  4.055170e-01  3.932852e-03  8.864653e-03  3.932852e-03  8.864653e-03 -9.140359e-01  4.055170e-01
6.392349e+08 -9.135458e-01  4.066199e-01  3.962156e-03  8.901707e-03  3.962156e-03  8.901707e-03 -9.135458e-01  4.066199e-01
6.403801e+08 -9.130505e-01  4.077280e-01  3.991812e-03  8.939110e-03  3.991812e-03  8.939110e-03 -9.130505e-01  4.077280e-01
6.415273e+08 -9.125520e-01  4.088424e-01  4.021823e-03  8.976864e-03  4.021823e-03  8.976864e-03 -9.125520e-01  4.088424e-01
6.426766e+08 -9.120493e-01  4.099626e-01  4.052194e-03  9.014971e-03  4.052194e-03  9.014971e-03 -9.120493e-01  4.099626e-01
6.438280e+08 -9.115413e-01  4.110882e-01  4.082931e-03  9.053434e-03  4.082931e-03  9.053434e-03 -9.115413e-01  4.110882e-01
6.449814e+08 -9.110299e-01  4.122201e-01  4.114042e-03  9.092266e-03  4.114042e-03  9.092266e-03 -9.110299e-01  4.122201e-01
6.461369e+08 -9.105132e-01  4.133575e-01  4.145532e-03  9.131471e-03  4.145532e-03  9.131471e-03 -9.105132e-01  4.133575e-01
6.472944e+08 -9.099930e-01  4.145015e-01  4.177410e-03  9.171049e-03  4.177410e-03  9.171049e-03 -9.099930e-01  4.145015e-01
6.484540e+08 -9.094672e-01  4.156511e-01  4.209683e-03  9.211016e-03  4.209683e-03  9.211016e-03 -9.094672e-01  4.156511e-01
6.496157e+08 -9.089378e-01  4.168074e-01  4.242354e-03  9.251362e-03  4.242354e-03  9.251362e-03 -9.089378e-01  4.168074e-01
6.507795e+08 -9.084039e-01  4.179699e-01  4.275437e-03  9.292113e-03  4.275437e-03  9.292113e-03 -9.084039e-01  4.179699e-01
6.519454e+08 -9.078641e-01  4.191382e-01  4.308933e-03  9.333260e-03  4.308933e-03  9.333260e-03 -9.078641e-01  4.191382e-01
6.531134e+08 -9.073206e-01  4.203134e-01  4.342854e-03  9.374817e-03  4.342854e-03  9.374817e-03 -9.073206e-01  4.203134e-01
6.542834e+08 -9.067713e-01  4.214945e-01  4.377205e-03  9.416787e-03  4.377205e-03  9.416787e-03 -9.067713e-01  4.214945e-01
6.554556e+08 -9.062181e-01  4.226825e-01  4.411993e-03  9.459174e-03  4.411993e-03  9.459174e-03 -9.062181e-01  4.226825e-01
6.566298e+08 -9.056589e-01  4.238768e-01  4.447230e-03  9.501991e-03  4.447230e-03  9.501991e-03 -9.056589e-01  4.238768e-01
6.578062e+08 -9.050957e-01  4.250780e-01  4.482922e-03  9.545243e-03  4.482922e-03  9.545243e-03 -9.050957e-01  4.250780e-01
6.589846e+08 -9.045263e-01  4.262856e-01  4.519082e-03  9.588942e-03  4.519082e-03  9.588942e-03 -9.045263e-01  4.262856e-01
6.601652e+08 -9.039528e-01  4.275004e-01  4.555714e-03  9.633093e-03  4.555714e-03  9.633093e-03 -9.039528e-01  4.275004e-01
6.613479e+08 -9.033730e-01  4.287216e-01  4.592824e-03  9.677687e-03  4.592824e-03  9.677687e-03 -9.033730e-01  4.287216e-01
6.625327e+08 -9.027889e-01  4.299502e-01  4.630428e-03  9.722752e-03  4.630428e-03  9.722752e-03 -9.027889e-01  4.299502e-01
