# HZ S RI R 50.000000
! FREQ(HZ)    reS11         imS11         reS21         imS21         reS12         imS12         reS22         imS22       
5.006828e+08 -9.631506e-01  2.689199e-01  1.289190e-03  4.617301e-03  1.289190e-03  4.617301e-03 -9.631506e-01  2.689199e-01
5.015669e+08 -9.629892e-01  2.694973e-01  1.295515e-03  4.629237e-03  1.295515e-03  4.629237e-03 -9.629892e-01  2.694973e-01
5.024526e+08 -9.628269e-01  2.700764e-01  1.301882e-03  4.641231e-03  1.301882e-03  4.641231e-03 -9.628269e-01  2.700764e-01
5.033398e+08 -9.626638e-01  2.706571e-01  1.308290e-03  4.653280e-03  1.308290e-03  4.653280e-03 -9.626638e-01  2.706571e-01
5.042286e+08 -9.624998e-01  2.712399e-01  1.314741e-03  4.665381e-03  1.314741e-03  4.665381e-03 -9.624998e-01  2.712399e-01
5.051189e+08 -9.623349e-01  2.718243e-01  1.321233e-03  4.677537e-03  1.321233e-03  4.677537e-03 -9.623349e-01  2.718243e-01
5.060108e+08 -9.621691e-01  2.724108e-01  1.327771e-03  4.689758e-03  1.327771e-03  4.689758e-03 -9.621691e-01  2.724108e-01
5.069043e+08 -9.620024e-01  2.729988e-01  1.334350e-03  4.702027e-03  1.334350e-03  4.702027e-03 -9.620024e-01  2.729988e-01
5.077994e+08 -9.618347e-01  2.735889e-01  1.340976e-03  4.714362e-03  1.340976e-03  4.714362e-03 -9.618347e-01  2.735889e-01
5.086961e+08 -9.616662e-01  2.741808e-01  1.347644e-03  4.726747e-03  1.347644e-03  4.726747e-03 -9.616662e-01  2.741808e-01
5.095943e+08 -9.614956e-01  2.747743e-01  1.354358e-03  4.739197e-03  1.354358e-03  4.739197e-03 -9.614956e-01  2.747743e-01
5.104941e+08 -9.613252e-01  2.753698e-01  1.361116e-03  4.751703e-03  1.361116e-03  4.751703e-03 -9.613252e-01  2.753698e-01
5.113956e+08 -9.611538e-01  2.759674e-01  1.367923e-03  4.764276e-03  1.367923e-03  4.764276e-03 -9.611538e-01  2.759674e-01
5.122986e+08 -9.609815e-01  2.765667e-01  1.374774e-03  4.776904e-03  1.374774e-03  4.776904e-03 -9.609815e-01  2.765667e-01
5.132032e+08 -9.608083e-01  2.771681e-01  1.381673e-03  4.789594e-03  1.381673e-03  4.789594e-03 -9.608083e-01  2.771681e-01
5.141094e+08 -9.606341e-01  2.777712e-01  1.388616e-03  4.802341e-03  1.388616e-03  4.802341e-03 -9.606341e-01  2.777712e-01
5.150172e+08 -9.604589e-01  2.783764e-01  1.395610e-03  4.815155e-03  1.395610e-03  4.815155e-03 -9.604589e-01  2.783764e-01
5.159266e+08 -9.602826e-01  2.789837e-01  1.402652e-03  4.828031e-03  1.402652e-03  4.828031e-03 -9.602826e-01  2.789837e-01
5.168376e+08 -9.601055e-01  2.795927e-01  1.409741e-03  4.840971e-03  1.409741e-03  4.840971e-03 -9.601055e-01  2.795927e-01
5.177502e+08 -9.599273e-01  2.802038e-01  1.416880e-03  4.853973e-03  1.416880e-03  4.853973e-03 -9.599273e-01  2.802038e-01
5.186644e+08 -9.597482e-01  2.808169e-01  1.424070e-03  4.867044e-03  1.424070e-03  4.867044e-03 -9.597482e-01  2.808169e-01
5.195803e+08 -9.595680e-01  2.814320e-01  1.431307e-03  4.880173e-03  1.431307e-03  4.880173e-03 -9.595680e-01  2.814320e-01
5.204977e+08 -9.593868e-01  2.820489e-01  1.438596e-03  4.893372e-03  1.438596e-03  4.893372e-03 -9.593868e-01  2.820489e-01
5.214168e+08 -9.592046e-01  2.826680e-01  1.445936e-03  4.906635e-03  1.445936e-03  4.906635e-03 -9.592046e-01  2.826680e-01
5.223375e+08 -9.590214e-01  2.832891e-01  1.453329e-03  4.919968e-03  1.453329e-03  4.919968e-03 -9.590214e-01  2.832891e-01
5.232598e+08 -9.588371e-01  2.839122e-01  1.460772e-03  4.933366e-03  1.460772e-03  4.933366e-03 -9.588371e-01  2.839122e-01
5.241838e+08 -9.586506e-01  2.845372e-01  1.468270e-03  4.946834e-03  1.468270e-03  4.946834e-03 -9.586506e-01  2.845372e-01
5.251094e+08 -9.584642e-01  2.851644e-01  1.475820e-03  4.960368e-03  1.475820e-03  4.960368e-03 -9.584642e-01  2.851644e-01
5.260366e+08 -9.582768e-01  2.857936e-01  1.483423e-03  4.973973e-03  1.483423e-03  4.973973e-03 -9.582768e-01  2.857936e-01
5.269655e+08 -9.580882e-01  2.864251e-01  1.491081e-03  4.987645e-03  1.491081e-03  4.987645e-03 -9.580882e-01  2.864251e-01
5.278960e+08 -9.578986e-01  2.870586e-01  1.498793e-03  5.001388e-03  1.498793e-03  5.001388e-03 -9.578986e-01  2.870586e-01
5.288281e+08 -9.577078e-01  2.876944e-01  1.506563e-03  5.015209e-03  1.506563e-03  5.015209e-03 -9.577078e-01  2.876944e-01
5.297619e+08 -9.575160e-01  2.883322e-01  1.514388e-03  5.029097e-03  1.514388e-03  5.029097e-03 -9.575160e-01  2.883322e-01
5.306973e+08 -9.573231e-01  2.889720e-01  1.522267e-03  5.043053e-03  1.522267e-03  5.043053e-03 -9.573231e-01  2.889720e-01
5.316344e+08 -9.571291e-01  2.896140e-01  1.530205e-03  5.057088e-03  1.530205e-03  5.057088e-03 -9.571291e-01  2.896140e-01
5.325732e+08 -9.569339e-01  2.902583e-01  1.538201e-03  5.071197e-03  1.538201e-03  5.071197e-03 -9.569339e-01  2.902583e-01
5.335136e+08 -9.567376e-01  2.909047e-01  1.546256e-03  5.085379e-03  1.546256e-03  5.085379e-03 -9.567376e-01  2.909047e-01
5.344556e+08 -9.565401e-01  2.915534e-01  1.554371e-03  5.099642e-03  1.554371e-03  5.099642e-03 -9.565401e-01  2.915534e-01
5.353994e+08 -9.563415e-01  2.922043e-01  1.562543e-03  5.113974e-03  1.562543e-03  5.113974e-03 -9.563415e-01  2.922043e-01
5.363448e+08 -9.561417e-01  2.928573e-01  1.570777e-03  5.128387e-03  1.570777e-03  5.128387e-03 -9.561417e-01  2.928573e-01
5.372918e+08 -9.559396e-01  2.935124e-01  1.579072e-03  5.142875e-03  1.579072e-03  5.142875e-03 -9.559396e-01  2.935124e-01
5.382406e+08 -9.557374e-01  2.941700e-01  1.587429e-03  5.157445e-03  1.587429e-03  5.157445e-03 -9.557374e-01  2.941700e-01
5.391910e+08 -9.555341e-01  2.948299e-01  1.595848e-03  5.172091e-03  1.595848e-03  5.172091e-03 -9.555341e-01  2.948299e-01
5.401431e+08 -9.553295e-01  2.954920e-01  1.604330e-03  5.186820e-03  1.604330e-03  5.186820e-03 -9.553295e-01  2.954920e-01
5.410968e+08 -9.551238e-01  2.961564e-01  1.612877e-03  5.201632e-03  1.612877e-03  5.201632e-03 -9.551238e-01  2.961564e-01
5.420523e+08 -9.549168e-01  2.968231e-01  1.621486e-03  5.216522e-03  1.621486e-03  5.216522e-03 -9.549168e-01  2.968231e-01
5.430094e+08 -9.547086e-01  2.974922e-01  1.630161e-03  5.231495e-03  1.630161e-03  5.231495e-03 -9.547086e-01  2.974922e-01
5.439683e+08 -9.544991e-01  2.981637e-01  1.638901e-03  5.246546e-03  1.638901e-03  5.246546e-03 -9.544991e-01  2.981637e-01
5.449288e+08 -9.542883e-01  2.988375e-01  1.647709e-03  5.261688e-03  1.647709e-03  5.261688e-03 -9.542883e-01  2.988375e-01
5.458910e+08 -9.540763e-01  2.995136e-01  1.656584e-03  5.276915e-03  1.656584e-03  5.276915e-03 -9.540763e-01  2.995136e-01
5.468549e+08 -9.538630e-01  3.001922e-01  1.665528e-03  5.292228e-03  1.665528e-03  5.292228e-03 -9.538630e-01  3.001922e-01
5.478205e+08 -9.536484e-01  3.008732e-01  1.674540e-03  5.307626e-03  1.674540e-03  5.307626e-03 -9.536484e-01  3.008732e-01
5.487879e+08 -9.534315e-01  3.015562e-01  1.683621e-03  5.323111e-03  1.683621e-03  5.323111e-03 -9.534315e-01  3.015562e-01
5.497569e+08 -9.532143e-01  3.022421e-01  1.692774e-03  5.338688e-03  1.692774e-03  5.338688e-03 -9.532143e-01  3.022421e-01
5.507276e+08 -9.529958e-01  3.029304e-01  1.701997e-03  5.354353e-03  1.701997e-03  5.354353e-03 -9.529958e-01  3.029304e-01
5.517001e+08 -9.527759e-01  3.036211e-01  1.711291e-03  5.370105e-03  1.711291e-03  5.370105e-03 -9.527759e-01  3.036211e-01
5.526743e+08 -9.525547e-01  3.043145e-01  1.720660e-03  5.385951e-03  1.720660e-03  5.385951e-03 -9.525547e-01  3.043145e-01
5.536502e+08 -9.523322e-01  3.050101e-01  1.730100e-03  5.401887e-03  1.730100e-03  5.401887e-03 -9.523322e-01  3.050101e-01
5.546278e+08 -9.521082e-01  3.057085e-01  1.739618e-03  5.417923e-03  1.739618e-03  5.417923e-03 -9.521082e-01  3.057085e-01
5.556071e+08 -9.518829e-01  3.064093e-01  1.749210e-03  5.434049e-03  1.749210e-03  5.434049e-03 -9.518829e-01  3.064093e-01
5.565882e+08 -9.516562e-01  3.071128e-01  1.758879e-03  5.450271e-03  1.758879e-03  5.450271e-03 -9.516562e-01  3.071128e-01
5.575710e+08 -9.514281e-01  3.078188e-01  1.768625e-03  5.466589e-03  1.768625e-03  5.466589e-03 -9.514281e-01  3.078188e-01
5.585556e+08 -9.511985e-01  3.085273e-01  1.778448e-03  5.483005e-03  1.778448e-03  5.483005e-03 -9.511985e-01  3.085273e-01
5.595419e+08 -9.509664e-01  3.092382e-01  1.788351e-03  5.499519e-03  1.788351e-03  5.499519e-03 -9.509664e-01  3.092382e-01
5.605299e+08 -9.507340e-01  3.099520e-01  1.798332e-03  5.516131e-03  1.798332e-03  5.516131e-03 -9.507340e-01  3.099520e-01
5.615196e+08 -9.505002e-01  3.106684e-01  1.808396e-03  5.532848e-03  1.808396e-03  5.532848e-03 -9.505002e-01  3.106684e-01
5.625112e+08 -9.502648e-01  3.113876e-01  1.818542e-03  5.549663e-03  1.818542e-03  5.549663e-03 -9.502648e-01  3.113876e-01
5.635044e+08 -9.500280e-01  3.121095e-01  1.828770e-03  5.566579e-03  1.828770e-03  5.566579e-03 -9.500280e-01  3.121095e-01
5.644994e+08 -9.497896e-01  3.128340e-01  1.839081e-03  5.583602e-03  1.839081e-03  5.583602e-03 -9.497896e-01  3.128340e-01
5.654962e+08 -9.495498e-01  3.135613e-01  1.849479e-03  5.600731e-03  1.849479e-03  5.600731e-03 -9.495498e-01  3.135613e-01
5.664948e+08 -9.493084e-01  3.142912e-01  1.859961e-03  5.617962e-03  1.859961e-03  5.617962e-03 -9.493084e-01  3.142912e-01
5.674951e+08 -9.490655e-01  3.150241e-01  1.870533e-03  5.635308e-03  1.870533e-03  5.635308e-03 -9.490655e-01  3.150241e-01
5.684971e+08 -9.488210e-01  3.157597e-01  1.881190e-03  5.652757e-03  1.881190e-03  5.652757e-03 -9.488210e-01  3.157597e-01
5.695010e+08 -9.485739e-01  3.164976e-01  1.891936e-03  5.670315e-03  1.891936e-03  5.670315e-03 -9.485739e-01  3.164976e-01
5.705066e+08 -9.483262e-01  3.172389e-01  1.902775e-03  5.687989e-03  1.902775e-03  5.687989e-03 -9.483262e-01  3.172389e-01
5.715140e+08 -9.480770e-01  3.179829e-01  1.913702e-03  5.705768e-03  1.913702e-03  5.705768e-03 -9.480770e-01  3.179829e-01
5.725231e+08 -9.478261e-01  3.187300e-01  1.924726e-03  5.723671e-03  1.924726e-03  5.723671e-03 -9.478261e-01  3.187300e-01
5.735341e+08 -9.475737e-01  3.194797e-01  1.935839e-03  5.741680e-03  1.935839e-03  5.741680e-03 -9.475737e-01  3.194797e-01
5.745468e+08 -9.473196e-01  3.202325e-01  1.947049e-03  5.759808e-03  1.947049e-03  5.759808e-03 -9.473196e-01  3.202325e-01
5.755613e+08 -9.470638e-01  3.209881e-01  1.958355e-03  5.778056e-03  1.958355e-03  5.778056e-03 -9.470638e-01  3.209881e-01
5.765776e+08 -9.468063e-01  3.217469e-01  1.969760e-03  5.796424e-03  1.969760e-03  5.796424e-03 -9.468063e-01  3.217469e-01
5.775957e+08 -9.465471e-01  3.225084e-01  1.981260e-03  5.814907e-03  1.981260e-03  5.814907e-03 -9.465471e-01  3.225084e-01
5.786156e+08 -9.462852e-01  3.232727e-01  1.992861e-03  5.833511e-03  1.992861e-03  5.833511e-03 -9.462852e-01  3.232727e-01
5.796373e+08 -9.460226e-01  3.240404e-01  2.004565e-03  5.852245e-03  2.004565e-03  5.852245e-03 -9.460226e-01  3.240404e-01
5.806608e+08 -9.457583e-01  3.248110e-01  2.016370e-03  5.871102e-03  2.016370e-03  5.871102e-03 -9.457583e-01  3.248110e-01
5.816862e+08 -9.454921e-01  3.255849e-01  2.028279e-03  5.890083e-03  2.028279e-03  5.890083e-03 -9.454921e-01  3.255849e-01
5.827133e+08 -9.452243e-01  3.263617e-01  2.040291e-03  5.909189e-03  2.040291e-03  5.909189e-03 -9.452243e-01  3.263617e-01
5.837422e+08 -9.449546e-01  3.271417e-01  2.052412e-03  5.928426e-03  2.052412e-03  5.928426e-03 -9.449546e-01  3.271417e-01
5.847730e+08 -9.446831e-01  3.279249e-01  2.064640e-03  5.947797e-03  2.064640e-03  5.947797e-03 -9.446831e-01  3.279249e-01
5.858056e+08 -9.444098e-01  3.287110e-01  2.076978e-03  5.967302e-03  2.076978e-03  5.967302e-03 -9.444098e-01  3.287110e-01
5.868400e+08 -9.441346e-01  3.295006e-01  2.089425e-03  5.986933e-03  2.089425e-03  5.986933e-03 -9.441346e-01  3.295006e-01
5.878762e+08 -9.438565e-01  3.302929e-01  2.101983e-03  6.006701e-03  2.101983e-03  6.006701e-03 -9.438565e-01  3.302929e-01
5.889142e+08 -9.435776e-01  3.310889e-01  2.114658e-03  6.026610e-03  2.114658e-03  6.026610e-03 -9.435776e-01  3.310889e-01
5.899541e+08 -9.432968e-01  3.318880e-01  2.127446e-03  6.046657e-03  2.127446e-03  6.046657e-03 -9.432968e-01  3.318880e-01
5.909958e+08 -9.430140e-01  3.326907e-01  2.140352e-03  6.066842e-03  2.140352e-03  6.066842e-03 -9.430140e-01  3.326907e-01
5.920394e+08 -9.427293e-01  3.334966e-01  2.153376e-03  6.087171e-03  2.153376e-03  6.087171e-03 -9.427293e-01  3.334966e-01
5.930848e+08 -9.424427e-01  3.343056e-01  2.166520e-03  6.107648e-03  2.166520e-03  6.107648e-03 -9.424427e-01  3.343056e-01
5.941321e+08 -9.421541e-01  3.351182e-01  2.179784e-03  6.128264e-03  2.179784e-03  6.128264e-03 -9.421541e-01  3.351182e-01
5.951812e+08 -9.418624e-01  3.359338e-01  2.193175e-03  6.149035e-03  2.193175e-03  6.149035e-03 -9.418624e-01  3.359338e-01
5.962321e+08 -9.415697e-01  3.367533e-01  2.206688e-03  6.169947e-03  2.206688e-03  6.169947e-03 -9.415697e-01  3.367533e-01
5.972849e+08 -9.412750e-01  3.375762e-01  2.220329e-03  6.191017e-03  2.220329e-03  6.191017e-03 -9.412750e-01  3.375762e-01
5.983396e+08 -9.409782e-01  3.384026e-01  2.234098e-03  6.212238e-03  2.234098e-03  6.212238e-03 -9.409782e-01  3.384026e-01
5.993961e+08 -9.406793e-01  3.392325e-01  2.247995e-03  6.233610e-03  2.247995e-03  6.233610e-03 -9.406793e-01  3.392325e-01
6.004545e+08 -9.403784e-01  3.400659e-01  2.262026e-03  6.255141e-03  2.262026e-03  6.255141e-03 -9.403784e-01  3.400659e-01
6.015148e+08 -9.400753e-01  3.409028e-01  2.276190e-03  6.276834e-03  2.276190e-03  6.276834e-03 -9.400753e-01  3.409028e-01
6.025769e+08 -9.397690e-01  3.417430e-01  2.290491e-03  6.298688e-03  2.290491e-03  6.298688e-03 -9.397690e-01  3.417430e-01
6.036410e+08 -9.394615e-01  3.425872e-01  2.304929e-03  6.320705e-03  2.304929e-03  6.320705e-03 -9.394615e-01  3.425872e-01
6.047068e+08 -9.391519e-01  3.434351e-01  2.319510e-03  6.342892e-03  2.319510e-03  6.342892e-03 -9.391519e-01  3.434351e-01
6.057746e+08 -9.388400e-01  3.442868e-01  2.334229e-03  6.365237e-03  2.334229e-03  6.365237e-03 -9.388400e-01  3.442868e-01
6.068443e+08 -9.385259e-01  3.451422e-01  2.349092e-03  6.387755e-03  2.349092e-03  6.387755e-03 -9.385259e-01  3.451422e-01
6.079158e+08 -9.382095e-01  3.460012e-01  2.364101e-03  6.410447e-03  2.364101e-03  6.410447e-03 -9.382095e-01  3.460012e-01
6.089893e+08 -9.378908e-01  3.468642e-01  2.379260e-03  6.433315e-03  2.379260e-03  6.433315e-03 -9.378908e-01  3.468642e-01
6.100646e+08 -9.375687e-01  3.477305e-01  2.394569e-03  6.456358e-03  2.394569e-03  6.456358e-03 -9.375687e-01  3.477305e-01
6.111418e+08 -9.372454e-01  3.486011e-01  2.410029e-03  6.479579e-03  2.410029e-03  6.479579e-03 -9.372454e-01  3.486011e-01
6.122210e+08 -9.369197e-01  3.494756e-01  2.425643e-03  6.502979e-03  2.425643e-03  6.502979e-03 -9.369197e-01  3.494756e-01
6.133020e+08 -9.365916e-01  3.503539e-01  2.441414e-03  6.526566e-03  2.441414e-03  6.526566e-03 -9.365916e-01  3.503539e-01
6.143850e+08 -9.362610e-01  3.512363e-01  2.457346e-03  6.550342e-03  2.457346e-03  6.550342e-03 -9.362610e-01  3.512363e-01
6.154698e+08 -9.359280e-01  3.521226e-01  2.473437e-03  6.574299e-03  2.473437e-03  6.574299e-03 -9.359280e-01  3.521226e-01
6.165566e+08 -9.355915e-01  3.530126e-01  2.489696e-03  6.598455e-03  2.489696e-03  6.598455e-03 -9.355915e-01  3.530126e-01
6.176453e+08 -9.352535e-01  3.539071e-01  2.506120e-03  6.622803e-03  2.506120e-03  6.622803e-03 -9.352535e-01  3.539071e-01
6.187359e+08 -9.349130e-01  3.548057e-01  2.522712e-03  6.647344e-03  2.522712e-03  6.647344e-03 -9.349130e-01  3.548057e-01
6.198285e+08 -9.345699e-01  3.557084e-01  2.539476e-03  6.672088e-03  2.539476e-03  6.672088e-03 -9.345699e-01  3.557084e-01
6.209230e+08 -9.342242e-01  3.566153e-01  2.556416e-03  6.697036e-03  2.556416e-03  6.697036e-03 -9.342242e-01  3.566153e-01
6.220194e+08 -9.338748e-01  3.575260e-01  2.573530e-03  6.722180e-03  2.573530e-03  6.722180e-03 -9.338748e-01  3.575260e-01
6.231177e+08 -9.335238e-01  3.584416e-01  2.590827e-03  6.747539e-03  2.590827e-03  6.747539e-03 -9.335238e-01  3.584416e-01
6.242180e+08 -9.331702e-01  3.593611e-01  2.608306e-03  6.773114e-03  2.608306e-03  6.773114e-03 -9.331702e-01  3.593611e-01
6.253202e+08 -9.328138e-01  3.602852e-01  2.625968e-03  6.798889e-03  2.625968e-03  6.798889e-03 -9.328138e-01  3.602852e-01
6.264244e+08 -9.324547e-01  3.612135e-01  2.643821e-03  6.824892e-03  2.643821e-03  6.824892e-03 -9.324547e-01  3.612135e-01
6.275305e+08 -9.320928e-01  3.621464e-01  2.661866e-03  6.851114e-03  2.661866e-03  6.851114e-03 -9.320928e-01  3.621464e-01
6.286386e+08 -9.317270e-01  3.630833e-01  2.680102e-03  6.877549e-03  2.680102e-03  6.877549e-03 -9.317270e-01  3.630833e-01
6.297486e+08 -9.313595e-01  3.640250e-01  2.698536e-03  6.904216e-03  2.698536e-03  6.904216e-03 -9.313595e-01  3.640250e-01
6.308606e+08 -9.309891e-01  3.649713e-01  2.717173e-03  6.931115e-03  2.717173e-03  6.931115e-03 -9.309891e-01  3.649713e-01
6.319746e+08 -9.306158e-01  3.659222e-01  2.736014e-03  6.958248e-03  2.736014e-03  6.958248e-03 -9.306158e-01  3.659222e-01
6.330905e+08 -9.302395e-01  3.668777e-01  2.755062e-03  6.985617e-03  2.755062e-03  6.985617e-03 -9.302395e-01  3.668777e-01
6.342084e+08 -9.298591e-01  3.678376e-01  2.774317e-03  7.013215e-03  2.774317e-03  7.013215e-03 -9.298591e-01  3.678376e-01
6.353283e+08 -9.294768e-01  3.688025e-01  2.793791e-03  7.041068e-03  2.793791e-03  7.041068e-03 -9.294768e-01  3.688025e-01
6.364501e+08 -9.290915e-01  3.697721e-01  2.813479e-03  7.069163e-03  2.813479e-03  7.069163e-03 -9.290915e-01  3.697721e-01
6.375739e+08 -9.287031e-01  3.707466e-01  2.833389e-03  7.097508e-03  2.833389e-03  7.097508e-03 -9.287031e-01  3.707466e-01
6.386997e+08 -9.283104e-01  3.717255e-01  2.853526e-03  7.126114e-03  2.853526e-03  7.126114e-03 -9.283104e-01  3.717255e-01
6.398275e+08 -9.279157e-01  3.727099e-01  2.873889e-03  7.154965e-03  2.873889e-03  7.154965e-03 -9.279157e-01  3.727099e-01
6.409573e+08 -9.275177e-01  3.736991e-01  2.894486e-03  7.184089e-03  2.894486e-03  7.184089e-03 -9.275177e-01  3.736991e-01
6.420891e+08 -9.271165e-01  3.746933e-01  2.915318e-03  7.213472e-03  2.915318e-03  7.213472e-03 -9.271165e-01  3.746933e-01
6.432229e+08 -9.267110e-01  3.756921e-01  2.936393e-03  7.243131e-03  2.936393e-03  7.243131e-03 -9.267110e-01  3.756921e-01
6.443587e+08 -9.263032e-01  3.766965e-01  2.957710e-03  7.273060e-03  2.957710e-03  7.273060e-03 -9.263032e-01  3.766965e-01
6.454965e+08 -9.258920e-01  3.777061e-01  2.979278e-03  7.303269e-03  2.979278e-03  7.303269e-03 -9.258920e-01  3.777061e-01
6.466363e+08 -9.254774e-01  3.787208e-01  3.001095e-03  7.333753e-03  3.001095e-03  7.333753e-03 -9.254774e-01  3.787208e-01
6.477781e+08 -9.250583e-01  3.797404e-01  3.023171e-03  7.364531e-03  3.023171e-03  7.364531e-03 -9.250583e-01  3.797404e-01
6.489219e+08 -9.246367e-01  3.807657e-01  3.045512e-03  7.395604e-03  3.045512e-03  7.395604e-03 -9.246367e-01  3.807657e-01
6.500678e+08 -9.242116e-01  3.817963e-01  3.068116e-03  7.426966e-03  3.068116e-03  7.426966e-03 -9.242116e-01  3.817963e-01
6.512156e+08 -9.237829e-01  3.828325e-01  3.090991e-03  7.458627e-03  3.090991e-03  7.458627e-03 -9.237829e-01  3.828325e-01
6.523655e+08 -9.233495e-01  3.838737e-01  3.114145e-03  7.490600e-03  3.114145e-03  7.490600e-03 -9.233495e-01  3.838737e-01
6.535174e+08 -9.229134e-01  3.849208e-01  3.137577e-03  7.522877e-03  3.137577e-03  7.522877e-03 -9.229134e-01  3.849208e-01
6.546714e+08 -9.224737e-01  3.859735e-01  3.161295e-03  7.555470e-03  3.161295e-03  7.555470e-03 -9.224737e-01  3.859735e-01
6.558274e+08 -9.220301e-01  3.870318e-01  3.185303e-03  7.588381e-03  3.185303e-03  7.588381e-03 -9.220301e-01  3.870318e-01
6.569855e+08 -9.215817e-01  3.880955e-01  3.209609e-03  7.621621e-03  3.209609e-03  7.621621e-03 -9.215817e-01  3.880955e-01
6.581455e+08 -9.211304e-01  3.891653e-01  3.234217e-03  7.655193e-03  3.234217e-03  7.655193e-03 -9.211304e-01  3.891653e-01
6.593077e+08 -9.206752e-01  3.902411e-01  3.259132e-03  7.689099e-03  3.259132e-03  7.689099e-03 -9.206752e-01  3.902411e-01
6.604719e+08 -9.202149e-01  3.913223e-01  3.284359e-03  7.723342e-03  3.284359e-03  7.723342e-03 -9.202149e-01  3.913223e-01
